!Agilent Technologies,N5227A,US51270349,A.09.80.20
!Agilent N5227A: A.09.80.20
!Date: Wednesday, February 17, 2021 20:16:10
!Correction: S11(Full 2 Port(1,2)) 
!S21(Full 2 Port(1,2)) 
!S12(Full 2 Port(1,2)) 
!S22(Full 2 Port(1,2)) 
!S2P File: Measurements: S11, S21, S12, S22:
# Hz S  RI   R 50
400000000 0.41940671 -0.85474271 -8.4651527 10.461168 0.019696498 0.019905131 0.057992291 -0.23374638
409500000 0.39758602 -0.8627131 -8.2227049 10.585514 0.020221151 0.019963929 0.052243382 -0.23449732
419000000 0.37653035 -0.87132144 -7.954926 10.668108 0.021104256 0.020049376 0.046091396 -0.23736784
428500000 0.35771558 -0.8778035 -7.6199846 10.554801 0.022139776 0.019868169 0.038677968 -0.24219994
438000000 0.3354159 -0.88456392 -7.3813071 10.597443 0.022652352 0.019901376 0.026585368 -0.24093354
447500000 0.30899504 -0.89051056 -7.222518 10.938316 0.023477372 0.019953249 0.023732584 -0.24088435
457000000 0.28534091 -0.89611274 -7.0004334 11.09405 0.02407581 0.019856436 0.018095385 -0.24114731
466500000 0.26294231 -0.90049708 -6.750977 11.180816 0.024727745 0.019584799 0.01199279 -0.24200776
476000000 0.24198778 -0.90552735 -6.4862313 11.197856 0.025721727 0.019698655 0.0054312474 -0.24440715
485500000 0.22239576 -0.90909714 -6.2019148 11.102198 0.026461661 0.019636247 -0.0046963869 -0.24614988
495000000 0.19803312 -0.9122436 -5.9994903 11.285414 0.027052034 0.019440064 -0.011343945 -0.24279402
504500000 0.1720458 -0.91425776 -5.7692218 11.492939 0.027752809 0.019039111 -0.016635854 -0.24296734
514000000 0.14904326 -0.91617966 -5.5361662 11.588149 0.028525673 0.019128902 -0.021754384 -0.24333826
523500000 0.1275775 -0.91705555 -5.2777667 11.616844 0.029310025 0.018702317 -0.02736726 -0.24288921
533000000 0.10718383 -0.91893846 -5.0125852 11.534516 0.030114735 0.018616237 -0.035708256 -0.24556744
542500000 0.085645095 -0.91955113 -4.7748361 11.553214 0.030731071 0.01826638 -0.045787837 -0.24175595
552000000 0.060469538 -0.91785181 -4.5521755 11.762534 0.031528309 0.018255619 -0.049018793 -0.24039339
561500000 0.037378773 -0.91653258 -4.3141174 11.838616 0.032415368 0.017709164 -0.055555463 -0.23963581
571000000 0.016302744 -0.91518134 -4.0689478 11.859104 0.032811992 0.01759732 -0.06102217 -0.23961742
580500000 -0.0029498457 -0.91373855 -3.8167634 11.803079 0.033682123 0.017195009 -0.067633115 -0.23947693
590000000 -0.023645625 -0.91283572 -3.5725536 11.736868 0.034203406 0.016774982 -0.07944221 -0.2372424
599500000 -0.048386913 -0.90880281 -3.346087 11.907804 0.034985673 0.016442304 -0.08183834 -0.23398069
609000000 -0.070181884 -0.90428329 -3.1122022 11.948278 0.035685819 0.016075088 -0.086432189 -0.23219235
618500000 -0.091272585 -0.90075088 -2.8662968 11.959049 0.036215566 0.01560812 -0.09202303 -0.22981034
628000000 -0.11024074 -0.89580232 -2.6427591 11.905581 0.036999237 0.01522723 -0.097728804 -0.2293926
637500000 -0.12884846 -0.8922841 -2.4126329 11.808758 0.037661009 0.014846059 -0.10722256 -0.22680645
647000000 -0.15058735 -0.88533217 -2.176811 11.878434 0.038132969 0.014344853 -0.11154848 -0.22200115
656500000 -0.17181034 -0.87858361 -1.947754 11.914273 0.038818542 0.013994848 -0.11508334 -0.21984251
666000000 -0.19112226 -0.87212813 -1.7281036 11.902933 0.039455891 0.013524824 -0.12051992 -0.21827222
675500000 -0.2102527 -0.86548942 -1.4988639 11.859898 0.04014504 0.013178564 -0.12636973 -0.21636818
685000000 -0.2277129 -0.86043203 -1.2829367 11.746794 0.040745262 0.012494271 -0.13340136 -0.21526481
694500000 -0.24713498 -0.85386062 -1.0759542 11.726263 0.041279905 0.011947269 -0.1403621 -0.20945348
704000000 -0.26670986 -0.84377605 -0.83535379 11.774693 0.041910332 0.011503656 -0.14260077 -0.20600401
713500000 -0.28489062 -0.83480877 -0.62739784 11.74043 0.042376924 0.010821859 -0.14738674 -0.20341934
723000000 -0.30235305 -0.82611835 -0.40223646 11.686502 0.043072991 0.010371882 -0.15262572 -0.20028086
732500000 -0.31947085 -0.81752682 -0.18913572 11.607671 0.043646429 0.0096169934 -0.15773879 -0.19712934
742000000 -0.33675158 -0.81004441 0.0091107292 11.538414 0.04408662 0.0090310313 -0.1637495 -0.19311173
751500000 -0.35464641 -0.79892844 0.22337915 11.527059 0.044560045 0.0087749297 -0.16647749 -0.18815589
761000000 -0.37114686 -0.78803283 0.42541522 11.486316 0.04492959 0.0080249878 -0.17097257 -0.18519948
770500000 -0.38764369 -0.77654076 0.64851749 11.412388 0.045295905 0.0073119304 -0.17566572 -0.18056552
780000000 -0.40234187 -0.76725167 0.82820231 11.33011 0.045998916 0.006578037 -0.17994419 -0.17757122
789500000 -0.41783336 -0.75749534 1.012519 11.226797 0.046483807 0.0060108071 -0.18692274 -0.17352861
799000000 -0.43402785 -0.7463153 1.2033036 11.18603 0.046938866 0.0054210625 -0.18904732 -0.16872972
808500000 -0.4495002 -0.73422998 1.411604 11.135002 0.047406197 0.0048351209 -0.19297642 -0.16496634
818000000 -0.46377328 -0.72179437 1.6012114 11.055154 0.047780335 0.0041124285 -0.19703509 -0.16060947
827500000 -0.47741887 -0.71008247 1.7776457 10.970332 0.048152503 0.0033185857 -0.20033872 -0.15674806
837000000 -0.49149722 -0.69918764 1.952649 10.865636 0.04855106 0.0026808262 -0.20507871 -0.15289842
846500000 -0.50507152 -0.6878643 2.118567 10.773874 0.048796933 0.00191647 -0.21020453 -0.14828975
856000000 -0.51893342 -0.6742866 2.3055706 10.699407 0.049190059 0.00127643 -0.2116974 -0.14233589
865500000 -0.53152937 -0.66063446 2.4872334 10.61849 0.04955738 0.00044794672 -0.21504213 -0.13858356
875000000 -0.54441142 -0.64753819 2.6582286 10.520652 0.050026353 -0.0001956386 -0.21818519 -0.1340363
884500000 -0.55616176 -0.63534075 2.8142598 10.406692 0.050264742 -0.0009484223 -0.22161989 -0.13013382
894000000 -0.5672729 -0.62351525 2.9525194 10.280926 0.050385829 -0.0016536504 -0.22573145 -0.12443044
903500000 -0.57843375 -0.60849547 3.1316841 10.202644 0.050630186 -0.0023176861 -0.22683205 -0.11859417
913000000 -0.58985794 -0.59453726 3.2915876 10.119704 0.05107981 -0.0030509671 -0.22904903 -0.11485093
922500000 -0.60075933 -0.58026451 3.4546919 10.01653 0.051366698 -0.003806751 -0.23193115 -0.11075394
932000000 -0.61085671 -0.56642038 3.5911484 9.8915119 0.05167035 -0.004682235 -0.23456214 -0.10602066
941500000 -0.62010503 -0.55390823 3.7244644 9.7611494 0.051791895 -0.0053847586 -0.23858249 -0.10043971
951000000 -0.63011664 -0.53947371 3.8783493 9.6623344 0.051911805 -0.0062003876 -0.24010603 -0.094366297
960500000 -0.63902354 -0.52339137 4.0311322 9.5584488 0.052136518 -0.0069899326 -0.24065007 -0.08974272
970000000 -0.64870352 -0.50951177 4.1734385 9.4671268 0.052448444 -0.0078975381 -0.24363519 -0.085789412
979500000 -0.65727437 -0.49505749 4.3096895 9.3402605 0.052673284 -0.0084646307 -0.24532282 -0.081323043
989000000 -0.66526139 -0.48178107 4.422328 9.2064457 0.052790172 -0.0094398977 -0.24770476 -0.076184139
998500000 -0.67414391 -0.46812347 4.5388784 9.0855837 0.05276164 -0.010277933 -0.25043187 -0.070321411
1008000000 -0.68118566 -0.45202175 4.6934185 8.9849625 0.053025302 -0.010907789 -0.24987854 -0.064936444
1017500000 -0.68757975 -0.43671563 4.8180671 8.8693838 0.053033631 -0.011702549 -0.25151438 -0.060457259
1027000000 -0.69486761 -0.42219472 4.9374003 8.7493143 0.053247958 -0.012396196 -0.25289255 -0.056324944
1036500000 -0.70101726 -0.40774959 5.0477433 8.6144037 0.053299636 -0.013244143 -0.25435147 -0.051071838
1046000000 -0.70768744 -0.39368808 5.1509824 8.4766645 0.053350974 -0.014079448 -0.2569561 -0.045933183
1055500000 -0.71394515 -0.37851855 5.2693672 8.3654766 0.05334213 -0.014805575 -0.25710064 -0.039890565
1065000000 -0.71928495 -0.36268339 5.3911233 8.2442522 0.053566929 -0.015480113 -0.25728109 -0.035749283
1074500000 -0.7245717 -0.34793389 5.4973145 8.1260862 0.053451821 -0.01631297 -0.25801975 -0.03084548
1084000000 -0.72944313 -0.33343971 5.5997806 7.9933453 0.053497557 -0.017229958 -0.25923201 -0.026067806
1093500000 -0.73411316 -0.3187803 5.6835198 7.8529701 0.05350044 -0.018207574 -0.26060528 -0.020891648
1103000000 -0.73887205 -0.30388373 5.7834554 7.7267847 0.053475007 -0.018900201 -0.26111102 -0.01505414
1112500000 -0.74230742 -0.28808978 5.8909483 7.5986834 0.053398263 -0.019623805 -0.26052448 -0.0096199149
1122000000 -0.7457788 -0.27349919 5.9831929 7.4815893 0.053505257 -0.020384287 -0.26082593 -0.0059478208
1131500000 -0.74960393 -0.25876611 6.0747466 7.3522935 0.05334406 -0.021197479 -0.26113284 -0.0012761101
1141000000 -0.75264829 -0.24407089 6.1538782 7.2123547 0.053356647 -0.02213392 -0.26199803 0.0040935888
1150500000 -0.75582618 -0.23033036 6.226645 7.0823355 0.053200047 -0.022880668 -0.2632266 0.0090223774
1160000000 -0.75829917 -0.2146416 6.3161497 6.9527278 0.053111035 -0.023690388 -0.26232111 0.014438241
1169500000 -0.75966996 -0.19961779 6.3988748 6.8220024 0.052937124 -0.024396179 -0.26107943 0.019213777
1179000000 -0.76152343 -0.18479997 6.474277 6.6917357 0.052985057 -0.025234995 -0.26099133 0.023704899
1188500000 -0.76357496 -0.17027332 6.5470748 6.5529394 0.052807037 -0.026091913 -0.26116732 0.028114794
1198000000 -0.76587903 -0.15566365 6.6093011 6.4162335 0.052513782 -0.026917532 -0.26183766 0.033519622
1207500000 -0.76653951 -0.14114891 6.6791573 6.2851295 0.052560817 -0.027586337 -0.26054615 0.039332416
1217000000 -0.76696163 -0.12603766 6.7572036 6.1595669 0.052303951 -0.028439149 -0.25995526 0.043532729
1226500000 -0.76715499 -0.11162969 6.8207288 6.0269561 0.052099288 -0.029179696 -0.2584503 0.048032369
1236000000 -0.76778591 -0.096631423 6.8821425 5.8875995 0.052072197 -0.030098088 -0.25839606 0.052593205
1245500000 -0.76841897 -0.082852572 6.9310417 5.7514725 0.051823951 -0.030809926 -0.25803801 0.057214368
1255000000 -0.76801747 -0.069808751 6.9767356 5.6164508 0.051394988 -0.031654429 -0.25755659 0.062906466
1264500000 -0.76705796 -0.054396126 7.0408134 5.488688 0.051277556 -0.032339893 -0.25547823 0.067378484
1274000000 -0.76609796 -0.039422255 7.1012964 5.3550024 0.051068794 -0.033108633 -0.2539123 0.071593143
1283500000 -0.76538944 -0.025735637 7.1567264 5.2253718 0.050777834 -0.03391305 -0.25282755 0.075833268
1293000000 -0.7642709 -0.011966662 7.1936417 5.0907807 0.050569635 -0.034711786 -0.25192693 0.080019332
1302500000 -0.76382214 0.00043406518 7.2198439 4.9556623 0.050201297 -0.03551 -0.25155938 0.084825017
1312000000 -0.76175886 0.013963115 7.2596827 4.8249879 0.049857475 -0.036054291 -0.24951412 0.090330318
1321500000 -0.75909734 0.028340409 7.3072815 4.6945424 0.04971759 -0.036818638 -0.2471901 0.093732573
1331000000 -0.75722128 0.041870374 7.3577027 4.5773578 0.049589306 -0.037634507 -0.24607889 0.097206801
1340500000 -0.75483465 0.05546961 7.3922043 4.4386716 0.049099926 -0.038511962 -0.2444998 0.10139863
1350000000 -0.75301135 0.068443924 7.4147487 4.3068991 0.04869961 -0.039196528 -0.24395376 0.10551888
1359500000 -0.75032604 0.081715219 7.441699 4.1742091 0.048211567 -0.039949752 -0.24241392 0.11097635
1369000000 -0.74672985 0.095202558 7.4740314 4.0448046 0.048040222 -0.040601309 -0.23921363 0.11506162
1378500000 -0.74308997 0.10837669 7.5155578 3.9144206 0.047759764 -0.041412625 -0.23743397 0.11894114
1388000000 -0.73940563 0.12118984 7.5362206 3.7839191 0.047250088 -0.042118371 -0.23533176 0.12279966
1397500000 -0.73613411 0.13354379 7.5530043 3.6567688 0.046966873 -0.042860534 -0.23388173 0.12690301
1407000000 -0.73274946 0.14537303 7.5600033 3.5257599 0.046446029 -0.043552283 -0.23249456 0.13131182
1416500000 -0.72889251 0.15817763 7.5809011 3.4023283 0.046155285 -0.044118199 -0.22924863 0.13511777
1426000000 -0.72308213 0.17095312 7.61025 3.2796178 0.045819253 -0.044960361 -0.22709784 0.13859382
1435500000 -0.71914858 0.18320583 7.6298003 3.1507378 0.045282971 -0.045765873 -0.22471306 0.14249745
1445000000 -0.71497643 0.19538419 7.6412444 3.0287905 0.044794161 -0.046319284 -0.22337344 0.14578278
1454500000 -0.71089882 0.20714806 7.6356411 2.900208 0.044281527 -0.047028728 -0.22124408 0.15001106
1464000000 -0.70546478 0.21854959 7.6455426 2.7756352 0.043980878 -0.047683835 -0.21816492 0.15436202
1473500000 -0.69932497 0.23106529 7.6710706 2.6488991 0.043480214 -0.04839905 -0.21552841 0.1577916
1483000000 -0.69381005 0.24312462 7.6825652 2.5274282 0.042994358 -0.049060065 -0.21306264 0.16101067
1492500000 -0.68788207 0.25378409 7.6800017 2.4016931 0.042584982 -0.049721412 -0.21061376 0.16414228
1502000000 -0.68309921 0.26511812 7.6726861 2.2795887 0.042101223 -0.050449904 -0.20846362 0.16805954
1511500000 -0.67818481 0.27597961 7.6668615 2.1631629 0.041497085 -0.051113218 -0.20589402 0.17178093
1521000000 -0.67179096 0.28718218 7.6769857 2.0426612 0.041063257 -0.051718153 -0.20259522 0.17517164
1530500000 -0.66446143 0.29779625 7.677907 1.9206233 0.040573169 -0.052193005 -0.19961329 0.17770661
1540000000 -0.65826344 0.30876988 7.6755328 1.8002232 0.039957553 -0.052789696 -0.19720393 0.18101186
1549500000 -0.65258962 0.31914249 7.6643968 1.6853415 0.039477553 -0.053626798 -0.19489178 0.18437867
1559000000 -0.6464802 0.32972226 7.6475229 1.5704243 0.038894445 -0.054143656 -0.192534 0.18799673
1568500000 -0.6391995 0.33975461 7.6421556 1.4520559 0.038411818 -0.054770652 -0.18839031 0.19153054
1578000000 -0.63108003 0.35010871 7.6406579 1.3337257 0.037813008 -0.055363137 -0.18548089 0.1939165
1587500000 -0.62384158 0.36045009 7.6300373 1.2179652 0.037399691 -0.055896677 -0.18266398 0.19628823
1597000000 -0.61759657 0.36999208 7.6158409 1.103918 0.036547359 -0.056687266 -0.17945008 0.19935261
1606500000 -0.61075795 0.37949026 7.591464 0.99297833 0.036084268 -0.05731225 -0.17705379 0.20228416
1616000000 -0.60373962 0.38888371 7.5724373 0.882029 0.035390873 -0.05771054 -0.17428376 0.20604153
1625500000 -0.5953818 0.39824191 7.5575352 0.76912689 0.034888826 -0.058263656 -0.17005017 0.20836782
1635000000 -0.58721495 0.40775928 7.5426831 0.65564537 0.034154773 -0.058768794 -0.16678974 0.21093811
1644500000 -0.57934749 0.41656414 7.524332 0.54604977 0.033495732 -0.059330385 -0.16370706 0.21318014
1654000000 -0.57207674 0.42557976 7.4957147 0.43677589 0.033026557 -0.059995748 -0.16106202 0.21604025
1663500000 -0.56427872 0.43379477 7.4639525 0.33064637 0.0322222 -0.060544364 -0.15803474 0.21905652
1673000000 -0.55642843 0.44233108 7.4422288 0.22429428 0.031674594 -0.061055284 -0.15435176 0.22155721
1682500000 -0.54699171 0.45092076 7.4244971 0.11513609 0.031147903 -0.061491318 -0.15073267 0.22324461
1692000000 -0.53833818 0.45932448 7.3969893 0.0092623094 0.030514458 -0.062021848 -0.14748541 0.2256106
1701500000 -0.53037465 0.46739873 7.3671765 -0.096010052 0.029794967 -0.06267418 -0.14449075 0.22814322
1711000000 -0.5223158 0.47498938 7.3266125 -0.1983799 0.028916759 -0.063156821 -0.14110172 0.23070602
1720500000 -0.51409429 0.48275474 7.2915854 -0.30010834 0.028243572 -0.063574582 -0.13717656 0.23329099
1730000000 -0.5040555 0.49064204 7.2674232 -0.40643173 0.027676005 -0.064190753 -0.133531 0.23496856
1739500000 -0.49498659 0.49829847 7.2380915 -0.50881827 0.02696589 -0.064491011 -0.13011014 0.23708977
1749000000 -0.48638144 0.5052669 7.2013974 -0.6042372 0.026238134 -0.065022305 -0.12663998 0.23889874
1758500000 -0.47825474 0.51249987 7.158534 -0.70178115 0.025559468 -0.065567672 -0.12326062 0.24114691
1768000000 -0.46939316 0.51915634 7.1181202 -0.79677635 0.024800936 -0.065876074 -0.11952785 0.24322528
1777500000 -0.45968896 0.52548254 7.0845313 -0.89551479 0.024150578 -0.06631913 -0.11558221 0.24484852
1787000000 -0.45002908 0.53200096 7.0478506 -0.99306351 0.023428256 -0.066780582 -0.11196219 0.2461859
1796500000 -0.44054323 0.53869057 7.0092149 -1.0907041 0.022698795 -0.067169301 -0.10838982 0.24781582
1806000000 -0.43178645 0.5446893 6.9644761 -1.1801697 0.022017203 -0.067555599 -0.10526725 0.24943961
1815500000 -0.42255008 0.55043346 6.9155011 -1.2707804 0.021095309 -0.068038739 -0.10203469 0.25146058
1825000000 -0.41358036 0.55637509 6.8736715 -1.3587772 0.020353608 -0.068485677 -0.09814655 0.2534509
1834500000 -0.40277001 0.56252712 6.835937 -1.4566387 0.019741287 -0.068845354 -0.094027571 0.25441507
1844000000 -0.39279288 0.5679881 6.7927179 -1.5495842 0.018962935 -0.069205143 -0.090370305 0.25620553
1853500000 -0.38300535 0.57331455 6.743011 -1.6350083 0.01820793 -0.069548577 -0.086828873 0.25707304
1863000000 -0.3738265 0.57855505 6.6937232 -1.7231919 0.017349448 -0.070063323 -0.08330562 0.25903147
1872500000 -0.36431369 0.58306295 6.637434 -1.8005095 0.016667116 -0.070436567 -0.079179056 0.26054606
1882000000 -0.35437921 0.58876598 6.5946445 -1.8926284 0.015907025 -0.07070116 -0.075284339 0.26178867
1891500000 -0.34341791 0.59285617 6.546288 -1.9815278 0.014990648 -0.070940197 -0.07140334 0.26237571
1901000000 -0.33325782 0.59731942 6.5000992 -2.0663428 0.014226934 -0.071278892 -0.067680329 0.26322719
1910500000 -0.3237372 0.60186589 6.4482036 -2.1485579 0.013370122 -0.071683653 -0.064136282 0.26432589
1920000000 -0.31359005 0.60617322 6.3909879 -2.224067 0.012566126 -0.071988977 -0.061048828 0.26529494
1929500000 -0.30446067 0.61058033 6.3334279 -2.3044398 0.01165198 -0.072335854 -0.057093181 0.26650092
1939000000 -0.29383421 0.6142441 6.2829871 -2.3853581 0.011030504 -0.072431244 -0.052975345 0.26789209
1948500000 -0.28365037 0.61708492 6.2327385 -2.4651649 0.010232936 -0.072868854 -0.048898712 0.26811409
1958000000 -0.27338511 0.62098867 6.1769233 -2.5423775 0.0094933724 -0.073079452 -0.045090314 0.26869416
1967500000 -0.26367369 0.62458789 6.1186213 -2.6164062 0.0086183669 -0.073428765 -0.041732498 0.2695978
1977000000 -0.25343025 0.62762529 6.0580025 -2.6895697 0.0078614382 -0.073704936 -0.037893452 0.27033281
1986500000 -0.24269393 0.63060617 6.0037045 -2.763504 0.0069640814 -0.073841952 -0.033959057 0.27065128
1996000000 -0.23185828 0.63366973 5.9512868 -2.8429701 0.0061746011 -0.074143097 -0.030663826 0.27115181
2005500000 -0.22221591 0.63620782 5.891788 -2.9140739 0.0052292855 -0.074411355 -0.026811756 0.27175498
2015000000 -0.21142891 0.6384719 5.8272781 -2.9839449 0.0044779605 -0.074597195 -0.02363761 0.27227956
2024500000 -0.20201799 0.64135945 5.7654653 -3.0500748 0.00345761 -0.074845985 -0.019631015 0.27261239
2034000000 -0.19180506 0.64346009 5.7016406 -3.123353 0.0026637195 -0.075008824 -0.015271071 0.27322727
2043500000 -0.18100743 0.6448586 5.6430206 -3.191817 0.0018567311 -0.075229183 -0.011445958 0.27327365
2053000000 -0.17025204 0.64729536 5.5822678 -3.2576725 0.00093812007 -0.075280778 -0.0077076969 0.27345794
2062500000 -0.15994716 0.64851362 5.5187283 -3.3196957 -2.4579012e-006 -0.075487323 -0.0039692055 0.27340558
2072000000 -0.15003949 0.65047568 5.4543624 -3.3834462 -0.00084268226 -0.075590961 -0.00034337325 0.27342629
2081500000 -0.13972972 0.65148342 5.3871732 -3.4456224 -0.0015779868 -0.075804017 0.0034897174 0.27376571
2091000000 -0.12960044 0.65269077 5.3224244 -3.5063987 -0.0025560586 -0.075757131 0.0074245073 0.27366912
2100500000 -0.11901671 0.65364683 5.2587352 -3.5706093 -0.0033570149 -0.076047957 0.01103632 0.27366197
2110000000 -0.10810404 0.65412164 5.1919775 -3.6290824 -0.0042410577 -0.076141387 0.014642471 0.27332482
2119500000 -0.098749995 0.65541381 5.1277256 -3.6849911 -0.0051386119 -0.076095335 0.018048091 0.2729086
2129000000 -0.089221418 0.65607685 5.0599403 -3.7434156 -0.0061744191 -0.076387286 0.021967202 0.27368829
2138500000 -0.078052543 0.65630639 4.9906845 -3.7968998 -0.0068947794 -0.076366179 0.02554455 0.27299809
2148000000 -0.0680198 0.65624404 4.9236627 -3.8554928 -0.0076550907 -0.076473109 0.029788146 0.27247965
2157500000 -0.057700705 0.65681201 4.8546958 -3.9096591 -0.0087349433 -0.076419033 0.033499844 0.27199051
2167000000 -0.047908328 0.65619367 4.787406 -3.9616609 -0.0095008835 -0.076672323 0.036597572 0.27156961
2176500000 -0.038087353 0.65670407 4.7185817 -4.0141053 -0.010480965 -0.07662566 0.040393293 0.27099246
2186000000 -0.027924007 0.65645605 4.6481586 -4.0630336 -0.011211883 -0.076658063 0.044230677 0.27084506
2195500000 -0.017137218 0.65583974 4.5775056 -4.1153049 -0.012218186 -0.07663963 0.048344925 0.26975024
2205000000 -0.0071112551 0.65477747 4.5116301 -4.1632452 -0.013094393 -0.076762065 0.051401727 0.26945877
