!Agilent Technologies,N5227A,US51270349,A.09.80.20
!Agilent N5227A: A.09.80.20
!Date: Wednesday, February 17, 2021 19:51:57
!Correction: S11(Full 2 Port(1,2)) 
!S21(Full 2 Port(1,2)) 
!S12(Full 2 Port(1,2)) 
!S22(Full 2 Port(1,2)) 
!S2P File: Measurements: S11, S21, S12, S22:
# Hz S  RI   R 50
400000000 -0.00068966404 -0.010847894 0.84214181 -0.52568573 0.84169775 -0.52484876 -0.0016793498 -0.010115492
409500000 -0.00074719562 -0.01176472 0.83527738 -0.53637993 0.83440059 -0.53564733 -0.0026424578 -0.010699384
419000000 -0.0013443995 -0.012085669 0.82771802 -0.54643762 0.82728899 -0.54668957 -0.0019286074 -0.011065784
428500000 -0.0012155446 -0.011625364 0.82043195 -0.55730069 0.81953049 -0.55739683 -0.0018778599 -0.011925926
438000000 -0.0015615062 -0.012347567 0.81244928 -0.56717157 0.81132132 -0.56803894 -0.0013121139 -0.011943631
447500000 -0.0018763212 -0.012608762 0.80490571 -0.57855493 0.80452108 -0.57798856 -0.0023925216 -0.012088221
457000000 -0.0018975034 -0.013355907 0.79681152 -0.58862096 0.79666376 -0.58860844 -0.003034685 -0.011882144
466500000 -0.0027796775 -0.01312001 0.78935391 -0.59865409 0.78870678 -0.59853446 -0.0034201741 -0.013049926
476000000 -0.0031060909 -0.012977021 0.78139818 -0.60939538 0.7808795 -0.60916752 -0.0031890951 -0.012706668
485500000 -0.0037403314 -0.013360651 0.77275038 -0.61917931 0.7725631 -0.61898655 -0.0034593765 -0.012577256
495000000 -0.0033520602 -0.013582908 0.7644999 -0.62934136 0.7638728 -0.62884921 -0.0044132024 -0.012496591
504500000 -0.0036227356 -0.013984326 0.75552529 -0.6385895 0.75562775 -0.63835108 -0.0039739423 -0.012172019
514000000 -0.0033210046 -0.014235085 0.74745935 -0.64854783 0.74706066 -0.6482513 -0.003477769 -0.01289966
523500000 -0.0039441255 -0.015197694 0.73903674 -0.65805709 0.73832721 -0.65802288 -0.0045755883 -0.013145996
533000000 -0.0046702037 -0.015293817 0.73004758 -0.6669426 0.72932738 -0.66740721 -0.0043434105 -0.014329725
542500000 -0.0038665817 -0.015671315 0.72089702 -0.67734241 0.72036839 -0.67618346 -0.0053115445 -0.01478993
552000000 -0.0039347941 -0.015673293 0.71131444 -0.68617845 0.71129566 -0.68521482 -0.0058616544 -0.01395348
561500000 -0.0050859395 -0.016230151 0.70258892 -0.69407958 0.70216602 -0.69482124 -0.0056742337 -0.0156813
571000000 -0.0057992279 -0.015555472 0.69247943 -0.70365763 0.69221109 -0.70350426 -0.0055614761 -0.015038223
580500000 -0.005184351 -0.016283222 0.68355834 -0.71259916 0.68356138 -0.71210814 -0.0063386993 -0.015427527
590000000 -0.0052887201 -0.016358608 0.67395222 -0.72142202 0.67318726 -0.72086966 -0.0052450486 -0.015436718
599500000 -0.0051296824 -0.016200384 0.66438133 -0.73013538 0.66345668 -0.7295171 -0.0057575125 -0.015239732
609000000 -0.0066061723 -0.016668342 0.65412492 -0.73898786 0.65446329 -0.73822999 -0.0070720632 -0.01490746
618500000 -0.00587714 -0.016414808 0.64505941 -0.74733537 0.64420533 -0.74645919 -0.0072531751 -0.01669245
628000000 -0.0075084949 -0.016485464 0.63560194 -0.7550562 0.63480484 -0.7547791 -0.0082152076 -0.016516523
637500000 -0.0072982935 -0.017377902 0.6248579 -0.76347959 0.62454492 -0.7630043 -0.0088180751 -0.01666848
647000000 -0.007921922 -0.017607555 0.61451966 -0.77050728 0.61405766 -0.77025276 -0.0084195109 -0.016210126
656500000 -0.0087645976 -0.017758157 0.60456043 -0.77863115 0.60382485 -0.77832252 -0.0088984445 -0.01593028
666000000 -0.0085502118 -0.018019332 0.59432536 -0.78608626 0.59353942 -0.78546739 -0.009217767 -0.016434848
675500000 -0.0083182314 -0.018456167 0.58341426 -0.79302353 0.58265948 -0.79314148 -0.0096995458 -0.016021358
685000000 -0.0090790456 -0.018056508 0.57310122 -0.80079561 0.57242042 -0.80046731 -0.0098325061 -0.016920714
694500000 -0.0089831846 -0.018364457 0.56215787 -0.80815524 0.56223851 -0.8083176 -0.009855913 -0.016283043
704000000 -0.0093949586 -0.018380141 0.55145407 -0.81517756 0.55107403 -0.81433314 -0.010386736 -0.01703788
713500000 -0.010451738 -0.018142216 0.54104185 -0.82180727 0.54072464 -0.82172889 -0.010676311 -0.016186805
723000000 -0.010606877 -0.018840283 0.53042448 -0.82908791 0.53005719 -0.82845229 -0.011178469 -0.017410424
732500000 -0.010461109 -0.018693164 0.51911861 -0.83545047 0.51895761 -0.83503246 -0.011380806 -0.018161228
742000000 -0.010724211 -0.019009102 0.50781721 -0.84238231 0.50766861 -0.84129679 -0.011827856 -0.017037094
751500000 -0.011175058 -0.019443478 0.49707162 -0.84750092 0.49643141 -0.84775692 -0.012265433 -0.017873302
761000000 -0.012416302 -0.019261565 0.48502722 -0.85476619 0.48538876 -0.85370028 -0.012541816 -0.016925132
770500000 -0.012263666 -0.019748216 0.47444311 -0.86028069 0.47454885 -0.85976666 -0.013785436 -0.019741932
780000000 -0.012862298 -0.019300891 0.46344945 -0.86616933 0.46266225 -0.86528146 -0.01437483 -0.018675182
789500000 -0.013223293 -0.019822255 0.45215711 -0.87176353 0.45123151 -0.87124324 -0.014008922 -0.019026948
799000000 -0.013085795 -0.020769972 0.44031048 -0.87664866 0.43974596 -0.87675095 -0.014341287 -0.017640382
808500000 -0.013598113 -0.02019481 0.42858064 -0.88281345 0.42805225 -0.88183826 -0.01461173 -0.018056428
818000000 -0.013806789 -0.020489674 0.41703638 -0.88754535 0.41654745 -0.88716072 -0.015188919 -0.018353406
827500000 -0.014713044 -0.020794995 0.40569311 -0.89268667 0.4049024 -0.89203006 -0.015293559 -0.017771497
837000000 -0.014307365 -0.020894967 0.39352071 -0.8977291 0.39304072 -0.89719296 -0.015962215 -0.01809871
846500000 -0.01574876 -0.019950673 0.38178959 -0.90250391 0.38151678 -0.90185714 -0.015347259 -0.018123362
856000000 -0.015728686 -0.020868391 0.3699398 -0.90696228 0.36975345 -0.90681356 -0.017005937 -0.018098835
865500000 -0.016036246 -0.019704094 0.35775006 -0.91142303 0.35780114 -0.91113985 -0.016479746 -0.018058343
875000000 -0.016479271 -0.020243976 0.34566924 -0.91611719 0.3453317 -0.91544968 -0.017001208 -0.018499127
884500000 -0.01706348 -0.020075578 0.33399889 -0.91983593 0.33405018 -0.91961563 -0.017160077 -0.018519128
894000000 -0.017318571 -0.020869082 0.32268846 -0.92394006 0.32199773 -0.92389679 -0.018827055 -0.018002629
903500000 -0.017771652 -0.021483181 0.30969864 -0.92765331 0.3100214 -0.92693061 -0.019209189 -0.017707122
913000000 -0.018140374 -0.020586206 0.29827765 -0.93176156 0.29770583 -0.93102878 -0.019505359 -0.017629258
922500000 -0.018611234 -0.020883905 0.28560305 -0.9349367 0.28544238 -0.93454194 -0.019757336 -0.017899239
932000000 -0.019561592 -0.021237329 0.27333465 -0.93826449 0.27361321 -0.937823 -0.01979013 -0.017559951
941500000 -0.019238716 -0.020421429 0.26103076 -0.94197232 0.26098904 -0.94090194 -0.020965906 -0.017624255
951000000 -0.020346463 -0.019840034 0.24910386 -0.94463527 0.24852879 -0.9437449 -0.021127395 -0.018267535
960500000 -0.020843156 -0.020550115 0.23682147 -0.94738007 0.23663847 -0.94698298 -0.02241808 -0.018086528
970000000 -0.021441638 -0.019691924 0.22455598 -0.95012969 0.22356084 -0.94932348 -0.021301525 -0.017539637
979500000 -0.021530939 -0.02035073 0.21156508 -0.95262492 0.21164219 -0.95192772 -0.021885712 -0.017849172
989000000 -0.022100547 -0.0195555 0.1999304 -0.95519572 0.19948515 -0.95397359 -0.022742663 -0.018338121
998500000 -0.022739083 -0.01941439 0.18746878 -0.95726967 0.1873416 -0.95709747 -0.023145132 -0.018148813
1008000000 -0.022954367 -0.019770114 0.1749814 -0.95957649 0.17467074 -0.95852607 -0.02438836 -0.018241577
1017500000 -0.023949999 -0.01889433 0.16247135 -0.96048552 0.16242793 -0.96060759 -0.024048492 -0.016953705
1027000000 -0.024183966 -0.019915184 0.15047662 -0.96285969 0.14972229 -0.96239108 -0.024314996 -0.016765717
1036500000 -0.0250063 -0.020025633 0.13792469 -0.9641335 0.13732232 -0.96365321 -0.02525463 -0.017079795
1046000000 -0.024651349 -0.019597495 0.12532051 -0.96510792 0.12486643 -0.96515453 -0.024612298 -0.017127078
1055500000 -0.02490226 -0.019169074 0.11228364 -0.96631032 0.11265748 -0.96660185 -0.025468824 -0.016257813
1065000000 -0.025808029 -0.019477539 0.10020718 -0.96760011 0.10019138 -0.96733767 -0.026557371 -0.016038621
1074500000 -0.026794616 -0.01909278 0.08760193 -0.96902269 0.087424777 -0.96814984 -0.026907723 -0.015547286
1084000000 -0.026712619 -0.019321021 0.074770674 -0.96958828 0.075278774 -0.9690991 -0.026912447 -0.015486846
1093500000 -0.02713168 -0.018875727 0.062897965 -0.96999246 0.062675975 -0.96962416 -0.02767407 -0.016121907
1103000000 -0.028000625 -0.018841911 0.050021928 -0.97031796 0.049960643 -0.97007984 -0.027564958 -0.015655458
1112500000 -0.027702965 -0.019126911 0.037603647 -0.97057718 0.037855662 -0.97000593 -0.028772261 -0.015509318
1122000000 -0.028697802 -0.018361101 0.02507248 -0.97063732 0.025044221 -0.97048801 -0.0288004 -0.014201263
1131500000 -0.028906232 -0.0179601 0.012638099 -0.97059655 0.012423309 -0.97043473 -0.028999709 -0.014160336
1141000000 -0.029341361 -0.017892675 -9.5658055e-005 -0.9706471 -0.00013936732 -0.97001594 -0.029337648 -0.014268829
1150500000 -0.030136067 -0.016819954 -0.012401995 -0.97019714 -0.012762032 -0.96966863 -0.029092075 -0.014057395
1160000000 -0.029830549 -0.017479839 -0.024821201 -0.96914822 -0.025263712 -0.96886688 -0.02937603 -0.013825946
1169500000 -0.030759368 -0.016869379 -0.03740501 -0.96881586 -0.0373898 -0.96817654 -0.03072561 -0.01295647
1179000000 -0.030684201 -0.017381378 -0.04918341 -0.96798342 -0.049754113 -0.96724868 -0.031073442 -0.01285978
1188500000 -0.031168798 -0.017021516 -0.062471531 -0.96693605 -0.062445205 -0.96656668 -0.031203523 -0.012337478
1198000000 -0.03153 -0.016793441 -0.074653506 -0.96569264 -0.074942306 -0.96488953 -0.030994391 -0.012933498
1207500000 -0.032153018 -0.016295059 -0.087034628 -0.96462446 -0.087174349 -0.96369606 -0.032075424 -0.012249749
1217000000 -0.032585811 -0.015386207 -0.099644043 -0.96310872 -0.099320278 -0.96249229 -0.031997841 -0.012293902
1226500000 -0.032596212 -0.015601192 -0.1116619 -0.96162039 -0.11192278 -0.96053648 -0.033132475 -0.011529648
1236000000 -0.033180717 -0.015179962 -0.1239318 -0.9593811 -0.12418223 -0.9589234 -0.032979745 -0.011941544
1245500000 -0.033648688 -0.015018243 -0.13658172 -0.95764798 -0.13633232 -0.957196 -0.033261061 -0.011334693
1255000000 -0.033847466 -0.014114758 -0.14851166 -0.95527995 -0.1482653 -0.9548111 -0.033893868 -0.011330424
1264500000 -0.034390494 -0.013620635 -0.16049621 -0.95292914 -0.16083103 -0.95262027 -0.034419883 -0.01013184
1274000000 -0.03456324 -0.013641213 -0.17283329 -0.95050603 -0.17300041 -0.95039159 -0.034585316 -0.01013255
1283500000 -0.034828741 -0.013446569 -0.18492119 -0.948295 -0.18456742 -0.9473691 -0.034733348 -0.0099701537
1293000000 -0.035434581 -0.013355994 -0.19691123 -0.94527262 -0.19692363 -0.94478965 -0.034936953 -0.0094742412
1302500000 -0.035734095 -0.012298874 -0.20901009 -0.94262993 -0.20870757 -0.94226331 -0.035629392 -0.009085929
1312000000 -0.036168832 -0.012066368 -0.22093995 -0.93940258 -0.22116256 -0.93930793 -0.035867203 -0.0079104919
1321500000 -0.036612753 -0.012171746 -0.23277642 -0.93608046 -0.23289092 -0.93586606 -0.036271568 -0.0076653636
1331000000 -0.036863115 -0.011839534 -0.24445942 -0.93361169 -0.24444708 -0.93254662 -0.035732385 -0.0066590472
1340500000 -0.037591584 -0.011476276 -0.25666997 -0.92971689 -0.25632298 -0.92900985 -0.036213771 -0.0068933205
1350000000 -0.037643932 -0.010669975 -0.2685585 -0.92599028 -0.26834953 -0.92578799 -0.036388949 -0.0065556276
1359500000 -0.038064249 -0.010306005 -0.28004462 -0.92229617 -0.28019291 -0.92145395 -0.036865439 -0.0068308595
1369000000 -0.038196225 -0.010078536 -0.29150614 -0.91845167 -0.29145533 -0.91761851 -0.037389174 -0.0056317137
1378500000 -0.038218491 -0.010077737 -0.30359331 -0.91420078 -0.30326486 -0.91341084 -0.037303045 -0.0057733324
1388000000 -0.038460635 -0.0093596606 -0.31487501 -0.91003978 -0.31499174 -0.90963799 -0.037839592 -0.005366385
1397500000 -0.038838379 -0.0088665262 -0.32621998 -0.90582073 -0.32652923 -0.90465772 -0.038093604 -0.0050653853
1407000000 -0.039298378 -0.0083427178 -0.33792058 -0.90111172 -0.33799109 -0.90059692 -0.037867062 -0.0042780694
1416500000 -0.039618697 -0.0080189593 -0.34907928 -0.89664501 -0.34952036 -0.89608771 -0.037942056 -0.0029421588
1426000000 -0.040208559 -0.0074812076 -0.36005408 -0.89200562 -0.36061394 -0.89100039 -0.038409859 -0.0027735622
1435500000 -0.039743774 -0.0070612333 -0.37147605 -0.88695192 -0.37160614 -0.88620889 -0.038527366 -0.0020675107
1445000000 -0.040468935 -0.0063413894 -0.38289145 -0.88193184 -0.38264817 -0.88127786 -0.038752124 -0.0018571444
1454500000 -0.040862855 -0.0061165616 -0.39380214 -0.87689048 -0.39404845 -0.87669528 -0.039314177 -0.0013297903
1464000000 -0.04096026 -0.0055363039 -0.40482509 -0.87122083 -0.40518549 -0.87117279 -0.039329238 -0.00085105584
1473500000 -0.041137528 -0.0048806998 -0.41606691 -0.86619896 -0.41608834 -0.865161 -0.039321452 -0.00052127853
1483000000 -0.04118678 -0.0046083434 -0.42702588 -0.86042678 -0.42694002 -0.85983372 -0.039343525 1.981989e-005
1492500000 -0.041886132 -0.0038281679 -0.43817145 -0.85450381 -0.43765101 -0.85420686 -0.039931435 0.0011152395
1502000000 -0.042009901 -0.0039445893 -0.44833881 -0.84889883 -0.44838244 -0.84804219 -0.039838888 0.00062790368
1511500000 -0.041864473 -0.0028126717 -0.45927516 -0.84291106 -0.45923382 -0.84217155 -0.039532647 0.0016118265
1521000000 -0.041494347 -0.0024823155 -0.46947408 -0.83684868 -0.46981281 -0.83579427 -0.039603282 0.0023068199
1530500000 -0.042386815 -0.0015776033 -0.48069942 -0.83028859 -0.48032248 -0.82950944 -0.039671991 0.0031557716
1540000000 -0.042218532 -0.0013834893 -0.49046791 -0.82405078 -0.49018452 -0.82327896 -0.039716143 0.0032369827
1549500000 -0.042369999 -0.00095608435 -0.50075632 -0.81770462 -0.50080657 -0.81672108 -0.039827835 0.0033625835
1559000000 -0.043209497 -0.00039877475 -0.51110482 -0.8108418 -0.51100856 -0.81030267 -0.039669774 0.0043214224
1568500000 -0.042843889 0.00036783243 -0.52144945 -0.80399829 -0.52144194 -0.80371213 -0.040293861 0.0053062607
1578000000 -0.042917427 0.0006474948 -0.5311352 -0.79695272 -0.53095907 -0.79666531 -0.040149786 0.0057184389
1587500000 -0.042845059 0.001313757 -0.54122591 -0.79007143 -0.54109645 -0.78972828 -0.039751969 0.0058375611
1597000000 -0.042843536 0.0016186298 -0.55108297 -0.7829479 -0.5510692 -0.78259295 -0.040079392 0.0065427111
1606500000 -0.042601932 0.0026082241 -0.56125259 -0.7761209 -0.56082457 -0.77538389 -0.040040914 0.0071240976
1616000000 -0.042260546 0.0028140945 -0.57080257 -0.76865047 -0.57039768 -0.7679112 -0.039614853 0.0074168551
1625500000 -0.042965222 0.0036695881 -0.58011788 -0.76119351 -0.57998347 -0.76051819 -0.040045533 0.0085911062
1635000000 -0.043103337 0.0041994499 -0.58937496 -0.75329924 -0.58952612 -0.75299978 -0.040042635 0.0089497194
1644500000 -0.042831924 0.0051986012 -0.59919727 -0.74607897 -0.59919232 -0.7452293 -0.039962985 0.0092437109
1654000000 -0.042939041 0.0054533971 -0.60816634 -0.73830783 -0.60817087 -0.73738265 -0.039869748 0.0095353052
1663500000 -0.043125737 0.0063496302 -0.61746746 -0.73030132 -0.61679727 -0.72960508 -0.040167753 0.0097252652
1673000000 -0.04274597 0.0066733751 -0.62658733 -0.72171515 -0.62626725 -0.72153825 -0.039818283 0.010810934
1682500000 -0.043457445 0.0071435417 -0.63581598 -0.71416014 -0.63499534 -0.71334863 -0.039923906 0.011880092
1692000000 -0.043758534 0.0080557112 -0.64424759 -0.70579737 -0.64433801 -0.70540071 -0.040221348 0.012198726
1701500000 -0.043631516 0.0082915714 -0.65303791 -0.69760191 -0.65271431 -0.6969133 -0.0398206 0.012395742
1711000000 -0.04350144 0.0091997981 -0.66178799 -0.68881959 -0.6617741 -0.68845105 -0.039954711 0.012886555
1720500000 -0.042923804 0.0093057444 -0.67029512 -0.68012887 -0.67017227 -0.67976314 -0.03979047 0.013765971
1730000000 -0.043051187 0.010057521 -0.67893636 -0.67178994 -0.67864066 -0.67065412 -0.039932925 0.01426422
1739500000 -0.042667147 0.011044738 -0.68765092 -0.66275889 -0.68699932 -0.66248375 -0.039573815 0.014650915
1749000000 -0.04333448 0.011584107 -0.69564396 -0.65435445 -0.69540411 -0.65344417 -0.039856259 0.015245479
1758500000 -0.042518191 0.012605385 -0.7037155 -0.64493972 -0.70350718 -0.64426798 -0.039441336 0.016064771
1768000000 -0.042447455 0.012884273 -0.71191925 -0.63596332 -0.7113294 -0.63508403 -0.039126512 0.016682226
1777500000 -0.042655747 0.013849979 -0.7197293 -0.62672997 -0.71947509 -0.62604409 -0.038848635 0.017517714
1787000000 -0.042753354 0.014112522 -0.72720313 -0.61746538 -0.72747743 -0.61696321 -0.038466703 0.018172465
1796500000 -0.042248439 0.01449139 -0.73510665 -0.60798609 -0.73506176 -0.60732967 -0.038444284 0.018231943
1806000000 -0.041980051 0.015370073 -0.74277544 -0.59851158 -0.74244386 -0.59791368 -0.03789771 0.019380722
1815500000 -0.041960839 0.016075257 -0.75019413 -0.58884436 -0.75005895 -0.5884394 -0.037559211 0.019616634
1825000000 -0.041992303 0.016236646 -0.75714797 -0.57957512 -0.75711119 -0.57894307 -0.037499234 0.019849414
1834500000 -0.04199909 0.016720187 -0.76482302 -0.56996489 -0.76423961 -0.56921673 -0.037363175 0.020764831
1844000000 -0.04123719 0.017676093 -0.77169776 -0.55995452 -0.77130097 -0.55932248 -0.036733951 0.020985354
1853500000 -0.041299455 0.01835129 -0.77863336 -0.54997897 -0.77853817 -0.54922932 -0.036630314 0.021662014
1863000000 -0.040780794 0.018036455 -0.78518444 -0.53997827 -0.78549564 -0.53977305 -0.036502495 0.021171302
1872500000 -0.040128987 0.019297654 -0.79204917 -0.53035551 -0.79228312 -0.52918994 -0.036262657 0.022736771
1882000000 -0.039606076 0.019062543 -0.79904729 -0.51973504 -0.79840416 -0.51899213 -0.035317592 0.022972127
1891500000 -0.039809395 0.020710627 -0.8051886 -0.50962365 -0.80501646 -0.50894958 -0.035864577 0.023997337
1901000000 -0.039061021 0.021127515 -0.81141353 -0.49904984 -0.81106025 -0.49818254 -0.035317533 0.024421236
1910500000 -0.038991287 0.021587158 -0.81777406 -0.48866731 -0.81760669 -0.48836404 -0.035001643 0.02444897
1920000000 -0.039069511 0.022577351 -0.82366168 -0.47830293 -0.82369161 -0.47729054 -0.034363069 0.025007207
1929500000 -0.038283434 0.022535527 -0.82952726 -0.46777031 -0.82972682 -0.46692723 -0.03445752 0.025458006
1939000000 -0.038275573 0.023416983 -0.83556378 -0.45714992 -0.83523399 -0.45666248 -0.033848472 0.025784343
1948500000 -0.037260853 0.024036296 -0.84160173 -0.44625998 -0.84085268 -0.44585314 -0.03297345 0.026311386
1958000000 -0.036841061 0.0248562 -0.84682554 -0.43535313 -0.84679848 -0.43471658 -0.032944363 0.027228719
1967500000 -0.036413189 0.024719194 -0.85220784 -0.42470905 -0.85198176 -0.42405859 -0.032292828 0.027168399
1977000000 -0.036444787 0.02512957 -0.8574701 -0.41392082 -0.85697854 -0.41311836 -0.032399181 0.0277697
1986500000 -0.035506628 0.02597254 -0.86265945 -0.40293962 -0.86225331 -0.40234894 -0.031597096 0.028715802
1996000000 -0.035633288 0.02582298 -0.86736864 -0.39200345 -0.86704171 -0.39137805 -0.030922106 0.028276581
2005500000 -0.035000373 0.026786139 -0.87210691 -0.38075694 -0.8718729 -0.37997407 -0.030822108 0.028324798
2015000000 -0.034587868 0.027258007 -0.87666571 -0.36933434 -0.87660712 -0.3690477 -0.030712361 0.028819766
2024500000 -0.033813011 0.027242608 -0.88160312 -0.35852003 -0.88108587 -0.35795698 -0.030188287 0.029221857
2034000000 -0.033438049 0.027735537 -0.88631052 -0.34710974 -0.8853305 -0.34657317 -0.030349661 0.029996062
2043500000 -0.033004012 0.028601963 -0.89052421 -0.33572569 -0.88950694 -0.33539769 -0.029521918 0.030139282
2053000000 -0.032707524 0.028910771 -0.89414597 -0.32459596 -0.89356989 -0.32391366 -0.028792823 0.03044299
2062500000 -0.031713676 0.029913589 -0.89828312 -0.31321347 -0.89822507 -0.31215477 -0.028219018 0.030913999
2072000000 -0.031425655 0.029801337 -0.90196276 -0.30137491 -0.90177125 -0.30071163 -0.027735785 0.031096926
2081500000 -0.031234857 0.030566195 -0.90635514 -0.28963968 -0.90544045 -0.28942168 -0.02707028 0.031949222
2091000000 -0.030411964 0.030495435 -0.90959293 -0.27830639 -0.90871358 -0.27779087 -0.026685607 0.032302413
2100500000 -0.030490084 0.03086661 -0.91277289 -0.26689073 -0.91216183 -0.26623183 -0.02660987 0.032071535
