!Agilent Technologies,N5227A,US51270349,A.09.80.20
!Agilent N5227A: A.09.80.20
!Date: Wednesday, February 17, 2021 20:07:53
!Correction: S11(Full 2 Port(1,2)) 
!S21(Full 2 Port(1,2)) 
!S12(Full 2 Port(1,2)) 
!S22(Full 2 Port(1,2)) 
!S2P File: Measurements: S11, S21, S12, S22:
# Hz S  RI   R 50
400000000 0.90887779 -0.41297001 -0.00013448524 -0.00030260382 -4.7950947e-005 -0.0001301142 1.0008212 -0.024636025
409500000 0.90486711 -0.42310062 -9.2181333e-005 9.8265537e-006 0.00021883783 -0.0002458966 1.0014004 -0.024988905
419000000 0.90147913 -0.43086773 -5.7632864e-005 -7.278582e-006 -9.7462645e-005 -1.3284169e-005 1.0013131 -0.025900876
428500000 0.89788336 -0.44020805 5.4424458e-005 0.00011376961 0.00011047208 6.0700753e-005 1.0008216 -0.026085787
438000000 0.89258486 -0.4484216 3.7257701e-005 7.9534489e-005 -4.2597462e-006 6.4779408e-005 1.0012084 -0.026915675
447500000 0.88743693 -0.45720732 7.8669022e-005 1.4011446e-005 0.00011549961 -9.1332753e-005 1.0011888 -0.028108526
457000000 0.88243508 -0.46730101 -6.3043422e-005 1.8268138e-005 8.2876613e-007 -0.00011987099 1.0012118 -0.028461589
466500000 0.87803167 -0.4754087 -9.3592833e-005 -1.5586866e-005 -5.2379928e-005 7.4959212e-006 1.0010279 -0.029148232
476000000 0.87306333 -0.48418188 -4.9361119e-005 0.00034473278 -0.00019507653 -0.00010338111 1.0011666 -0.030352613
485500000 0.86814576 -0.49241397 1.4752961e-005 0.00017561991 2.2803069e-006 -4.3021311e-005 1.0010513 -0.030740732
495000000 0.86256391 -0.50157189 -3.2162345e-005 5.5725959e-005 8.8965535e-005 -7.3558651e-005 1.0009408 -0.031163814
504500000 0.85692173 -0.50933498 0.00014366207 0.00013993036 -1.9441818e-006 -9.0837973e-005 1.0013175 -0.031208446
514000000 0.85316277 -0.51874828 0.00011440866 0.00010489872 -6.9514732e-005 0.00021902389 1.0012395 -0.03124268
523500000 0.84762889 -0.52724075 0.00017255511 2.7360595e-005 -0.00017953751 7.6969685e-005 1.0016353 -0.032202985
533000000 0.84220111 -0.53538388 -0.00010584656 -0.00018433636 8.9889007e-005 -7.4312018e-005 1.0013136 -0.033080328
542500000 0.83781558 -0.54475695 2.0863958e-005 6.1641971e-005 3.8997578e-006 5.5021705e-005 1.0017439 -0.032980502
552000000 0.83096391 -0.55278224 -8.9702276e-005 6.4248721e-005 -4.2261992e-005 6.6493929e-005 1.0010171 -0.033856977
561500000 0.82596827 -0.56156182 -8.1968938e-005 -4.2416752e-005 0.00014036217 -6.5217879e-005 1.0017495 -0.035101257
571000000 0.81936049 -0.56805605 -0.00015925018 0.00012379384 3.4772227e-005 -4.3129745e-005 1.0008881 -0.036254857
580500000 0.8143757 -0.57652515 7.6884629e-005 7.9776408e-005 7.1304581e-005 -0.00022431124 1.0017028 -0.03668062
590000000 0.80932796 -0.58467788 -0.0002067506 9.0555004e-005 -9.3744893e-005 -2.0104288e-005 1.0012308 -0.036160823
599500000 0.80240273 -0.59304851 9.202458e-005 -2.8347382e-005 -3.4494929e-005 -6.6565597e-005 1.0011375 -0.037202369
609000000 0.79550463 -0.60103673 -7.807691e-006 0.00015592627 7.8341407e-005 -2.2342729e-005 1.0014346 -0.037942853
618500000 0.79073668 -0.61001098 1.8923771e-005 0.00011779559 -1.9804296e-005 -1.2068989e-005 1.0011159 -0.038588848
628000000 0.78387463 -0.61748081 7.0280388e-005 0.00028734151 4.1328098e-005 3.9805396e-005 1.0016172 -0.039456058
637500000 0.77758974 -0.6254524 9.9943551e-005 -9.5592826e-005 9.9854951e-005 -4.0480725e-005 1.0018288 -0.040029801
647000000 0.77134031 -0.63236558 2.5506537e-005 6.7963076e-005 -3.266229e-005 4.5068919e-006 1.001852 -0.039968874
656500000 0.76424056 -0.64056063 -0.00016336502 2.7552096e-005 -2.4149856e-005 2.8386346e-005 1.0019246 -0.040444177
666000000 0.75799704 -0.6474492 -6.2132713e-005 2.8010047e-005 2.6962658e-005 0.00012108908 1.0017768 -0.041764207
675500000 0.75098491 -0.65467137 2.2814878e-005 0.00016514103 6.4769629e-005 -0.00015207556 1.0011683 -0.040735647
685000000 0.74495703 -0.66240901 -1.2355565e-005 0.00010094974 7.7597622e-005 0.00029714752 1.0017486 -0.042120393
694500000 0.73892665 -0.67008948 6.7102621e-005 0.00018613064 -0.0001293431 -4.5477598e-005 1.0017031 -0.042811323
704000000 0.73175889 -0.67741692 -0.0001160167 6.5106011e-005 -7.6698154e-005 -8.2618855e-005 1.0016317 -0.043094318
713500000 0.72451192 -0.68369305 0.00016226903 -2.0868119e-005 -2.3072424e-005 6.1470142e-005 1.001844 -0.044128012
723000000 0.71803969 -0.69207203 0.00015550315 7.3155388e-006 -4.872874e-005 8.1667233e-005 1.0017971 -0.044460718
732500000 0.71125239 -0.69893879 -0.00032921546 -0.00015715003 6.2948486e-005 -4.2833959e-005 1.0021958 -0.044566482
742000000 0.70401633 -0.70582795 -2.7425887e-005 -7.3173469e-005 -5.344097e-005 6.8934954e-005 1.0022044 -0.044942103
751500000 0.69707161 -0.71352285 0.00024944384 0.00016088615 4.3940014e-005 4.3565578e-005 1.0024201 -0.045183301
761000000 0.68867356 -0.7196539 7.0895185e-005 -3.961788e-005 -4.110935e-005 -0.00010045307 1.0026171 -0.046733223
770500000 0.68361318 -0.72851759 -9.6268232e-005 -0.00023903753 0.00012041602 3.117778e-005 1.0026673 -0.046907231
780000000 0.67620552 -0.73451382 0.00024792613 0.00017795301 -0.00019495875 4.6717882e-006 1.0027896 -0.047687922
789500000 0.66886753 -0.74028498 -2.9946888e-005 0.00019371345 5.5227365e-006 -2.7024067e-005 1.0027033 -0.047682513
799000000 0.66043437 -0.74637663 -7.097076e-005 -4.7353955e-005 -7.9790319e-005 -8.0108628e-005 1.0029001 -0.047291923
808500000 0.65304792 -0.75307626 0.00011295101 0.00022622627 2.6681206e-005 -1.9739642e-005 1.0030622 -0.048793528
818000000 0.64551467 -0.75971818 7.9622921e-005 0.00021189799 -2.4822588e-005 7.3694871e-005 1.0025904 -0.049200047
827500000 0.63743073 -0.76608586 5.7542158e-005 -5.6877936e-005 -0.00012549142 0.00014359906 1.0031765 -0.049073372
837000000 0.63036591 -0.77253914 4.0034367e-005 0.00011155312 -0.00011293857 -2.6884083e-005 1.0025843 -0.049692366
846500000 0.62325907 -0.7781468 2.2628436e-005 -0.00012415604 -1.454556e-005 5.9124483e-005 1.002507 -0.051137462
856000000 0.61479533 -0.78512794 -3.5084944e-005 -0.00020832798 3.4193225e-005 1.3026364e-005 1.0025067 -0.050392494
865500000 0.60728174 -0.79056931 7.2011164e-005 -7.3862284e-005 3.244188e-005 9.6270895e-005 1.0025214 -0.051937744
875000000 0.59951735 -0.7966947 -8.6186694e-005 2.8403676e-005 -0.00013595329 -7.2323208e-005 1.0025215 -0.051490165
884500000 0.59158838 -0.80238903 -0.00012064473 8.3092258e-005 7.4685639e-005 -0.00011511979 1.0026587 -0.052134492
894000000 0.58286029 -0.8083719 0.00019309054 9.9981648e-005 0.00011327399 -2.1940383e-005 1.0024118 -0.052403282
903500000 0.5747565 -0.81445736 0.00013802895 -5.7757556e-005 -1.5411031e-006 6.141085e-005 1.0026299 -0.053228449
913000000 0.56708527 -0.82027131 0.00013634187 2.5750453e-005 -2.2800446e-006 -1.6197922e-005 1.0027697 -0.053494599
922500000 0.55863178 -0.82612777 5.4668835e-006 -0.00023801449 -0.00015222649 -9.0756323e-005 1.0034094 -0.054107442
932000000 0.5502395 -0.83065653 -0.00015958391 -1.3777452e-005 -0.0001744358 -7.0360169e-005 1.0040231 -0.054206491
941500000 0.54151911 -0.83672708 0.00010927024 -2.2362659e-005 4.318522e-005 2.5241323e-005 1.0035255 -0.055482447
951000000 0.53411108 -0.84171385 1.1270973e-005 -0.00010261476 -5.7698224e-005 0.00015319657 1.0034492 -0.056691185
960500000 0.52466273 -0.84801823 0.0001385178 8.3673411e-005 3.4115201e-005 4.5410859e-005 1.0038575 -0.057067633
970000000 0.51687008 -0.85151225 5.3332002e-005 -8.5185238e-006 3.3158667e-005 -7.3054733e-005 1.0036526 -0.057359792
979500000 0.50812966 -0.85683781 -9.139481e-005 0.00024946025 9.2190341e-008 -0.0001784584 1.0037941 -0.057178926
989000000 0.50023043 -0.86158937 0.00020885447 -4.7816637e-005 5.2711388e-005 -0.00011237994 1.0034962 -0.058118597
998500000 0.49159116 -0.86732358 0.00011074442 1.1052692e-005 -3.2331518e-005 -0.0001381535 1.0036715 -0.05866145
1008000000 0.48286241 -0.87278378 1.2495922e-005 -7.237596e-006 -4.0003561e-005 -6.6000488e-005 1.0036703 -0.059274565
1017500000 0.47374788 -0.8754192 5.9816291e-005 -2.7322472e-005 3.7243342e-005 -2.5894828e-005 1.0041162 -0.059709735
1027000000 0.4644866 -0.88116413 0.00016594391 0.0001060457 -4.3040814e-005 -0.00015433351 1.0037681 -0.059762739
1036500000 0.455567 -0.8856768 -4.9990012e-005 4.0110721e-005 2.9484287e-005 -0.00010649678 1.003842 -0.059844956
1046000000 0.44766688 -0.88934177 -0.00012387912 -6.2097759e-005 -1.3962941e-005 -5.7532146e-005 1.003541 -0.060494166
1055500000 0.43871206 -0.89363837 3.3465909e-005 -1.4080013e-005 0.00011044578 5.8080182e-005 1.0029016 -0.060594153
1065000000 0.42917433 -0.89876086 2.4985406e-005 7.6453362e-005 -7.1583621e-005 -3.2809145e-005 1.0039821 -0.061437596
1074500000 0.42015338 -0.90294081 5.2600266e-005 -8.1380294e-006 3.6118388e-005 -8.9328016e-005 1.0037084 -0.062222965
1084000000 0.41181648 -0.90653574 5.3132517e-005 -5.207707e-005 1.1979303e-006 7.5628406e-005 1.0034806 -0.062624089
1093500000 0.40302488 -0.91062403 -7.8734367e-005 -7.3991272e-005 -7.2795054e-005 2.9515882e-005 1.0038911 -0.062868603
1103000000 0.39351445 -0.91415173 0.00016628827 0.00013159859 -2.330019e-005 -0.00010973348 1.0040267 -0.063051604
1112500000 0.38496152 -0.91883618 0.00011938976 -0.0001642166 -1.7889422e-005 9.6963877e-006 1.0031646 -0.063236117
1122000000 0.37469047 -0.92217511 -0.00010858467 3.8640414e-005 7.9112229e-005 6.345076e-005 1.0035366 -0.064986028
1131500000 0.36587733 -0.92535412 2.6264728e-005 3.7866492e-005 -2.4335619e-005 -0.00011951714 1.003708 -0.065181956
1141000000 0.35700461 -0.92935389 0.00011677744 -0.00028895109 -3.1042455e-005 4.022447e-005 1.002974 -0.065534569
1150500000 0.34780863 -0.93186587 -8.1785409e-005 2.8232771e-005 5.6296933e-005 -4.2400465e-005 1.0038688 -0.066319145
1160000000 0.33849084 -0.93484163 -1.1622637e-005 6.2783845e-005 -4.0212835e-005 -4.1937466e-005 1.00337 -0.066154063
1169500000 0.32879186 -0.9390201 -0.00010797425 -6.4625558e-005 -1.0815391e-005 3.5874193e-005 1.0035491 -0.066966645
1179000000 0.31978893 -0.94246924 -9.7770708e-006 1.6022648e-005 -5.8405523e-005 -7.0970982e-006 1.0034626 -0.066342011
1188500000 0.30995703 -0.94576794 -0.00010750518 2.5224928e-005 2.6904672e-005 4.8173047e-006 1.0033267 -0.067579351
1198000000 0.30165818 -0.94850349 -0.00031746895 6.605497e-005 4.0904524e-006 -8.6138985e-005 1.0035222 -0.067830138
1207500000 0.29191661 -0.95136964 2.677934e-005 -4.5333727e-006 1.0322775e-005 -3.3911392e-006 1.0038426 -0.06842266
1217000000 0.28292871 -0.95387292 4.353984e-005 4.1007461e-005 1.2612447e-005 2.9563076e-005 1.0042605 -0.069569886
1226500000 0.27292776 -0.95772487 -1.5532445e-005 -1.3847774e-006 0.0001053388 -2.3316725e-006 1.0030797 -0.069628961
1236000000 0.26348698 -0.9601056 6.4530992e-005 -0.00021568699 0.00014272034 -2.8123968e-005 1.0033081 -0.07035131
1245500000 0.25394753 -0.96239394 -0.00010327106 0.00012878599 -5.1038046e-006 -2.6942716e-005 1.0040282 -0.070326395
1255000000 0.24509996 -0.96460402 4.8654867e-005 -5.3037857e-005 -6.0371316e-005 -9.085433e-005 1.0036761 -0.071525887
1264500000 0.23467548 -0.96646076 9.4400721e-006 4.5072014e-005 1.3188866e-005 6.8178066e-005 1.003552 -0.071950763
1274000000 0.22508013 -0.9694382 8.2769686e-005 2.4390089e-005 5.2518302e-005 7.4722084e-005 1.0036095 -0.072128251
1283500000 0.21616344 -0.97177982 5.3394175e-005 6.3856976e-005 -6.2838553e-006 8.9615394e-005 1.0036708 -0.072583936
1293000000 0.20616318 -0.97296441 3.4179808e-005 0.0001186895 0.00018208317 0.00011761087 1.0031953 -0.072581999
1302500000 0.1969711 -0.97568113 -5.211982e-005 5.0607512e-005 2.0044323e-005 6.5902539e-005 1.0035385 -0.073748864
1312000000 0.18664204 -0.97721279 2.1346855e-009 4.3091637e-005 -4.2496657e-005 2.4408342e-005 1.0032235 -0.074188329
1321500000 0.17670377 -0.97871035 3.0957701e-005 -0.00012232072 3.555715e-005 -2.9530311e-005 1.0034649 -0.074331217
1331000000 0.16768344 -0.98017329 0.00022002231 6.0913244e-006 7.0479437e-005 -7.3396886e-006 1.0037169 -0.074931301
1340500000 0.1580832 -0.98161405 -2.9109797e-005 -3.3019955e-007 -8.1585546e-005 5.2256153e-005 1.0029947 -0.075096302
1350000000 0.14863591 -0.98317546 -0.00010100281 -0.0001304563 -2.2761185e-006 6.1250554e-005 1.0035913 -0.075914875
1359500000 0.13998426 -0.9850142 -0.00014599721 6.3407155e-005 -5.0275947e-005 -6.2429703e-005 1.0037334 -0.076789059
1369000000 0.12895258 -0.98574495 4.6878367e-006 -2.601422e-006 7.5944037e-005 -2.0820109e-005 1.0030951 -0.076576367
1378500000 0.1199769 -0.98740149 6.7849302e-005 6.4984492e-006 -1.0543386e-005 -2.8583536e-005 1.0031918 -0.077161536
1388000000 0.10993912 -0.98932284 -0.00014083739 6.5453816e-005 -7.0470029e-005 -2.9122155e-006 1.0035695 -0.077557251
1397500000 0.10070663 -0.99034119 3.9000886e-005 1.8259658e-005 -4.4328871e-007 -6.4118314e-005 1.0031912 -0.07832738
1407000000 0.091199458 -0.99026585 -3.4676854e-005 -2.9676961e-005 9.5811238e-006 -4.4752174e-005 1.0037593 -0.07857468
1416500000 0.080358699 -0.99081445 -0.00016523647 -2.7813699e-006 5.4630724e-005 -5.8096579e-005 1.0033153 -0.07882978
1426000000 0.070961989 -0.99152195 -5.4035416e-005 8.7397289e-005 8.7591208e-005 -9.2220798e-005 1.0030928 -0.078805342
1435500000 0.061341695 -0.99226433 5.1813095e-005 4.5923498e-005 -4.4432742e-005 3.4609344e-005 1.0027591 -0.07978455
1445000000 0.052260187 -0.9924646 -9.1060523e-005 5.6640692e-005 5.059475e-005 8.2672857e-005 1.0034454 -0.080282807
1454500000 0.042101756 -0.99356425 2.6472348e-005 4.6038622e-005 -5.8116286e-005 0.00013857162 1.0031552 -0.080184601
1464000000 0.032511093 -0.99396408 -3.3002383e-005 -2.3939874e-005 4.4511653e-005 8.1631239e-005 1.0034267 -0.08112099
1473500000 0.022690108 -0.99421978 1.3089853e-005 -5.6564029e-005 -1.69539e-005 -0.0001094733 1.0034821 -0.081824921
1483000000 0.013259322 -0.99424493 7.2035953e-005 -8.794215e-005 -1.0315408e-005 1.2399191e-005 1.003355 -0.082055882
1492500000 0.0031017833 -0.99438238 7.9643716e-005 5.0955063e-005 -4.3711621e-005 0.00012299733 1.0033872 -0.082234405
1502000000 -0.0057782372 -0.99504924 -6.6743938e-005 -0.00011051788 -3.2084552e-007 1.7726463e-005 1.0027156 -0.082745552
1511500000 -0.016316928 -0.99409133 5.6191257e-005 -5.0101356e-005 -6.1567946e-005 4.9758037e-006 1.0029519 -0.083491318
1521000000 -0.025781933 -0.99354255 -6.44963e-005 -9.1603397e-005 4.8456895e-005 -4.1194297e-005 1.0027772 -0.084000327
1530500000 -0.036121871 -0.9929927 -2.5722054e-005 2.2549935e-005 1.0145885e-005 -8.6776265e-005 1.0033494 -0.084654182
1540000000 -0.044901125 -0.99303854 -2.404767e-006 -1.134514e-005 7.202199e-005 7.2685889e-006 1.0025859 -0.084974393
1549500000 -0.054610971 -0.99276721 3.0373815e-006 7.0131602e-005 -2.6697498e-005 1.1430569e-005 1.0027601 -0.085094348
1559000000 -0.064418659 -0.99142778 4.618425e-005 -4.9956045e-005 -2.082577e-005 2.1378324e-005 1.0025861 -0.085258633
1568500000 -0.074195467 -0.99154162 6.0787424e-005 5.4696528e-005 9.7415905e-005 -1.0051234e-006 1.003065 -0.086323239
1578000000 -0.083793156 -0.99024218 -4.7377529e-005 6.173869e-005 1.5636191e-005 1.8930368e-005 1.0025669 -0.086388841
1587500000 -0.092867106 -0.98914599 -2.4677403e-005 -0.00015387537 4.3837546e-005 -0.00010748617 1.0023254 -0.086893044
1597000000 -0.1029217 -0.98890316 9.1116628e-005 -7.3939729e-005 2.8917912e-005 -1.2776738e-005 1.0022396 -0.087435566
1606500000 -0.11246191 -0.98710442 -0.00016959701 8.4282154e-005 3.5453064e-005 -4.9759066e-005 1.002394 -0.088084884
1616000000 -0.12110368 -0.98578191 7.1078422e-005 -0.00011950349 4.154423e-005 -5.8922687e-005 1.0017829 -0.088471249
1625500000 -0.13176993 -0.98491174 2.5380294e-005 -6.5235043e-005 7.8170036e-005 6.0811421e-005 1.0024941 -0.088423476
1635000000 -0.14124236 -0.98363143 2.5483572e-005 -3.3872806e-005 8.4598264e-007 -6.083832e-005 1.0023149 -0.088859752
1644500000 -0.15054387 -0.98183894 -1.2001095e-005 -7.0904998e-006 1.9163249e-006 4.0109477e-005 1.0025039 -0.089782804
1654000000 -0.15967071 -0.98039764 -0.00010113982 -2.9933653e-005 5.4388143e-005 -1.9112149e-005 1.002195 -0.089718215
1663500000 -0.16914032 -0.97916228 0.00012524378 0.00011295626 -3.1574513e-005 -1.410518e-005 1.0021393 -0.089967668
1673000000 -0.17866765 -0.97675747 -1.637284e-005 8.2180013e-005 -9.0586163e-006 -3.9403185e-005 1.0018421 -0.091106825
1682500000 -0.18891902 -0.97494912 -0.00010339557 3.0166304e-005 -1.9884035e-005 2.2461245e-006 1.0019649 -0.090695836
1692000000 -0.19805536 -0.97358292 -4.5205084e-005 0.00015370472 -6.2141065e-005 -2.7259137e-005 1.0019699 -0.090930901
1701500000 -0.20683883 -0.97142535 -0.00011493584 -3.5551584e-005 -3.8958158e-005 9.0885696e-005 1.0014186 -0.091511346
1711000000 -0.21622859 -0.9698959 -2.4390791e-005 8.7331107e-005 -3.8479142e-005 -3.7491551e-005 1.0011562 -0.092130475
1720500000 -0.22581542 -0.96739393 -0.00013055294 -5.8953869e-005 6.0249091e-005 -7.7840792e-005 1.0014398 -0.092972562
1730000000 -0.23540209 -0.96529913 0.00021265945 -3.4125794e-006 4.8792092e-005 -4.8822923e-005 1.0012934 -0.093367159
1739500000 -0.24496047 -0.96326029 1.5823172e-005 -6.209303e-005 -1.1362524e-005 -6.1825755e-005 1.0011426 -0.093889982
1749000000 -0.2543292 -0.96088707 -3.2470874e-005 4.7350539e-005 3.2928961e-005 -4.8422549e-005 1.0016494 -0.094138399
1758500000 -0.26396251 -0.95792651 1.620349e-005 -8.1651153e-005 -7.2641415e-005 1.4771337e-005 1.0011616 -0.095121041
1768000000 -0.27334094 -0.95479625 5.8351125e-005 -5.7677145e-005 -4.3762975e-005 -6.056307e-005 1.0007038 -0.095523782
1777500000 -0.28292567 -0.95190173 -1.3098504e-005 3.9338462e-005 -6.3300089e-005 -2.243467e-005 1.0013384 -0.09606187
1787000000 -0.29180804 -0.94925541 3.8402704e-005 1.0993115e-005 1.0461869e-005 -5.1690065e-005 1.0011882 -0.096354946
1796500000 -0.30099741 -0.94642252 5.086443e-005 8.6751636e-005 1.1161547e-005 -4.1120404e-007 1.0003239 -0.096906841
1806000000 -0.31090036 -0.94310206 5.0368253e-005 3.414087e-005 -6.1572202e-005 9.6639065e-005 1.0009739 -0.097388059
1815500000 -0.31905729 -0.94006181 4.5250595e-006 7.1498522e-005 -5.7314475e-005 6.7828259e-005 1.0010871 -0.097787775
1825000000 -0.32766449 -0.93743217 -0.00010353417 1.8122408e-005 -9.1014183e-005 -5.2497078e-005 1.0006545 -0.097894594
1834500000 -0.33731321 -0.93425858 8.2149803e-005 -8.1685073e-005 -5.5338409e-005 -1.000117e-005 1.0002071 -0.097776927
1844000000 -0.3458969 -0.93088317 -4.9329785e-005 0.00010621016 9.846122e-005 -8.6779961e-005 1.0008236 -0.098429337
1853500000 -0.35553592 -0.9272179 -1.1629031e-005 -0.0001701432 -4.147059e-005 6.0757236e-005 1.0003453 -0.09875223
1863000000 -0.36307579 -0.92433482 -3.6970036e-005 5.6812136e-005 -7.1271843e-006 3.5420944e-005 1.000278 -0.098993301
1872500000 -0.37277117 -0.9204511 1.2455321e-005 0.00012281466 -8.0612044e-006 -5.1681749e-005 1.0005965 -0.099722177
1882000000 -0.38138673 -0.91586709 -5.9460937e-005 -6.2653171e-006 8.6475251e-005 0.00011940376 1.0001941 -0.10090823
1891500000 -0.39128268 -0.91271681 -1.1724144e-005 2.191583e-005 -1.676574e-005 -7.2570263e-005 1.0001103 -0.1006249
1901000000 -0.39960176 -0.90835243 9.1236718e-005 -9.1772803e-005 3.3740605e-005 -3.2028174e-006 1.0000494 -0.10176753
1910500000 -0.40855253 -0.90461916 0.00010501299 -8.8063156e-005 -4.8481495e-005 0.00011737927 0.99990225 -0.10222773
1920000000 -0.41730231 -0.90009028 0.00011808331 -3.3822589e-006 -8.9428853e-005 3.8960302e-006 0.99991953 -0.10177913
1929500000 -0.42592192 -0.89671528 -8.2320345e-005 4.026352e-005 2.3249124e-006 8.3853774e-005 0.99949378 -0.10312753
1939000000 -0.43427727 -0.89214665 4.3526477e-005 -5.0384933e-005 -7.1461131e-005 -2.9696335e-005 0.99989402 -0.10282324
1948500000 -0.44277272 -0.88786566 4.7787238e-005 6.7336725e-005 -0.00011314073 6.1938466e-005 1.000248 -0.10424774
1958000000 -0.45228192 -0.88348216 -8.5599844e-005 1.9861783e-007 6.4185275e-005 0.00012844786 1.0002805 -0.1046889
1967500000 -0.46008432 -0.87889761 -2.3186194e-005 4.5767709e-005 -3.3191267e-005 9.6373675e-005 0.99949718 -0.10516551
1977000000 -0.46874544 -0.87504518 -0.00019638268 5.8824207e-005 -6.0646462e-006 5.7118694e-005 0.99872625 -0.10513946
