!Agilent Technologies,N5227A,US51270349,A.09.80.20
!Agilent N5227A: A.09.80.20
!Date: Wednesday, February 17, 2021 20:09:05
!Correction: S11(Full 2 Port(1,2)) 
!S21(Full 2 Port(1,2)) 
!S12(Full 2 Port(1,2)) 
!S22(Full 2 Port(1,2)) 
!S2P File: Measurements: S11, S21, S12, S22:
# Hz S  RI   R 50
400000000 1.0005103 -0.024811169 -6.0001086e-005 -5.3694384e-005 1.1246493e-006 -0.00010983569 0.90875834 -0.41400409
409500000 1.0016916 -0.02584568 -3.9764156e-005 0.00021984766 1.9400197e-005 4.380976e-005 0.90460163 -0.42306831
419000000 1.0017631 -0.025238229 0.0001406559 0.0002533134 -0.00011226465 -3.7525209e-005 0.90004563 -0.43237484
428500000 1.002014 -0.025620883 8.3324558e-006 7.8786565e-005 -0.00010384425 -0.00013522022 0.89520735 -0.44108325
438000000 1.0012447 -0.025886741 -7.6989556e-005 -5.324122e-005 2.5863512e-005 5.5519708e-005 0.89089698 -0.45032415
447500000 1.0014956 -0.026602617 -6.5231958e-005 7.6075674e-005 -6.319386e-005 5.8450843e-007 0.88580102 -0.4595851
457000000 1.0017642 -0.029004034 0.0001644123 0.00019214905 -9.3968292e-006 -2.9629293e-005 0.88179755 -0.46821579
466500000 1.0018668 -0.028386829 -9.2865739e-005 0.00010655427 -6.1784405e-005 -6.919507e-005 0.87645614 -0.47695246
476000000 1.0015793 -0.029273158 4.256966e-005 0.00012932421 0.00010020933 9.6904434e-005 0.87154061 -0.48607728
485500000 1.0011566 -0.029423608 7.6507109e-005 6.8869358e-006 0.00012610972 -4.7542217e-006 0.86643255 -0.49495953
495000000 1.0008285 -0.030734718 -2.956971e-005 0.00015686821 4.9826762e-005 -3.4261611e-005 0.86103237 -0.503317
504500000 0.99992931 -0.030642619 -0.00013275039 -0.00018302618 0.00012375652 -5.5993427e-005 0.8563844 -0.51180303
514000000 1.0011469 -0.030858444 -0.0003429004 -0.00016068408 3.4247576e-005 6.7263318e-005 0.85166395 -0.52065092
523500000 1.0014248 -0.031782527 0.00025561251 0.00010402192 -0.00016100421 8.375071e-005 0.8460843 -0.52915949
533000000 1.0019445 -0.031763788 -2.7856424e-005 -0.00033354896 -2.34566e-005 0.00020093677 0.8403818 -0.53781295
542500000 1.0023754 -0.032843869 -3.9406721e-005 5.6135614e-006 -9.6841213e-006 6.2582294e-005 0.83535117 -0.54607064
552000000 1.0016079 -0.03379295 4.3309819e-006 1.6818474e-005 -0.0001000254 8.1242186e-005 0.82933342 -0.55406964
561500000 1.002535 -0.033712603 -1.9167119e-006 -0.00018404516 0.00010038938 4.506539e-006 0.82405686 -0.56296647
571000000 1.0006584 -0.033955865 -0.00020817653 -0.00019909574 -1.3728374e-005 2.2530397e-005 0.81751329 -0.57095897
580500000 1.0011801 -0.034740489 -3.4632278e-005 -3.0258816e-005 -0.00013604839 -0.00016137271 0.81176537 -0.57910305
590000000 1.0016469 -0.034850243 -0.00028008298 -0.00017132028 6.0402188e-005 -4.3735126e-005 0.80651748 -0.58695221
599500000 1.0013644 -0.035924233 0.00010210172 -9.6414478e-005 -1.4670949e-005 0.00017276386 0.80047989 -0.59525305
609000000 1.0009229 -0.037353922 -0.00017907818 2.2015216e-005 1.0131693e-005 -6.6452952e-007 0.79421794 -0.60338378
618500000 1.0030737 -0.037742279 -0.00019991434 -1.5660815e-005 1.5864716e-005 -4.8735355e-006 0.78783578 -0.61106968
628000000 1.001978 -0.03849373 -0.0002339216 -6.1200386e-005 2.3835964e-005 -9.3239491e-005 0.78156108 -0.61966151
637500000 1.0031984 -0.039020292 6.2601022e-005 0.00023739695 -1.0052172e-005 1.3597471e-005 0.77506018 -0.62722671
647000000 1.0017406 -0.039106589 4.6734731e-005 8.6866887e-005 0.00011932248 6.9941714e-005 0.76899058 -0.63442075
656500000 1.0020659 -0.040170342 4.3549255e-005 9.0012009e-006 -0.00012497925 8.7107233e-005 0.76231295 -0.64187419
666000000 1.0013218 -0.040056728 7.4059157e-005 8.6208885e-005 1.4340692e-006 -0.00012271311 0.75568348 -0.65006042
675500000 1.0014768 -0.041150041 0.00010329549 0.00031697762 0.0001547381 -0.00022767883 0.74973452 -0.65686846
685000000 1.0016544 -0.041426558 -0.0001584998 0.00036897176 9.9908801e-005 -8.5644788e-005 0.742598 -0.66462004
694500000 1.0017948 -0.041795224 2.4032295e-005 -0.00028617503 0.00011217689 -7.393938e-005 0.73595715 -0.67208141
704000000 1.0026636 -0.042387206 5.3954467e-005 1.3033333e-006 4.4932469e-005 -1.5806805e-005 0.72922844 -0.67888546
713500000 1.0011579 -0.042945769 -5.6161989e-005 7.2420306e-005 -1.2552928e-005 -2.7779533e-005 0.72214943 -0.68651873
723000000 1.0024359 -0.043730225 -0.00028475226 -4.3860022e-005 -6.023557e-006 0.00012619547 0.71555859 -0.69377655
732500000 1.0029091 -0.043276433 0.00016720666 -9.8820907e-005 0.00011638793 -9.6358941e-005 0.70896244 -0.70082009
742000000 1.0026984 -0.044913158 -9.2141541e-005 0.00018383826 -2.3668714e-005 -7.5749613e-006 0.70195538 -0.70742464
751500000 1.0033969 -0.045274425 0.00016954323 7.6924698e-005 -9.5486932e-005 2.0971906e-005 0.69485766 -0.71480572
761000000 1.0017841 -0.046425674 1.5541296e-005 4.0806015e-005 -1.6353793e-005 -4.3583103e-005 0.68693906 -0.72191316
770500000 1.004915 -0.045207433 0.00023748954 0.00010691952 -0.00012555241 4.0648451e-005 0.67959517 -0.7285223
780000000 1.0049335 -0.046260308 -0.0001128047 -0.00026967193 -1.5433257e-005 -0.00018157967 0.67226285 -0.73539984
789500000 1.0040827 -0.045392722 2.9685189e-005 4.8537517e-005 0.00012823292 4.5898218e-005 0.66525424 -0.74202669
799000000 1.0027317 -0.04725977 6.5370214e-006 0.00013829931 8.5344029e-005 -0.00014372662 0.6581943 -0.7487002
808500000 1.0027486 -0.0471186 -6.7236477e-005 2.0234378e-005 3.1469051e-005 -1.4605207e-006 0.65009505 -0.75538051
818000000 1.0035335 -0.048167046 -0.00016554147 0.00010818111 -5.2460629e-005 -7.1744951e-005 0.64249623 -0.76116031
827500000 1.0028335 -0.048733082 4.6039975e-005 3.8848655e-005 8.123475e-005 1.3264079e-006 0.63540727 -0.7681188
837000000 1.0036719 -0.049699329 -0.00011059832 0.00011988678 8.239501e-005 7.6025048e-005 0.62756038 -0.77404177
846500000 1.0026233 -0.048570208 3.13581e-005 4.5600227e-005 -3.3340566e-005 -3.0090136e-005 0.61897206 -0.78015858
856000000 1.0036187 -0.050829552 4.6935358e-005 -3.7666159e-006 -1.9997497e-005 -2.7948481e-005 0.6120491 -0.78581357
865500000 1.0029914 -0.05009865 -0.00012115642 -6.2389536e-006 -1.9039944e-005 2.2567356e-006 0.6033988 -0.79211104
875000000 1.0036576 -0.050616998 0.00010180845 0.00021114366 -4.8206533e-005 -1.838905e-005 0.59629613 -0.79785228
884500000 1.0033721 -0.050259441 5.2948642e-005 7.5402677e-005 8.4202977e-005 -4.2556283e-005 0.58757192 -0.8039242
894000000 1.0040158 -0.051811241 0.00015572262 0.00011689059 -4.1367359e-005 3.6359899e-005 0.5799979 -0.80946434
903500000 1.0034379 -0.053411424 0.00013377992 -0.00010843942 7.1548144e-005 0.00010483402 0.57122362 -0.81525928
913000000 1.0042902 -0.05310154 -6.5482629e-005 6.4067674e-005 0.00014302992 2.3273271e-005 0.5632509 -0.82104975
922500000 1.0044726 -0.053861842 -2.1714242e-005 -6.2541289e-006 -1.4482562e-005 9.3718067e-005 0.55501842 -0.82718074
932000000 1.0034701 -0.053832453 -0.00011726519 4.4157689e-005 -0.00010360874 -1.029697e-005 0.54716432 -0.8329609
941500000 1.0045373 -0.054857574 0.00021076619 0.00019159682 -6.4681939e-005 9.3144903e-005 0.53811705 -0.83785707
951000000 1.0044945 -0.054720387 0.00019054227 4.1081879e-005 3.4423865e-005 -3.3319448e-005 0.52913523 -0.8434698
960500000 1.0051764 -0.056022421 -2.525005e-005 7.5057474e-006 -4.8490263e-005 -4.2858654e-005 0.52105635 -0.84868097
970000000 1.0036778 -0.055756081 8.0118029e-005 6.6145571e-005 -9.3642986e-005 -4.9901e-006 0.51278126 -0.85376126
979500000 1.0038236 -0.056666106 -0.0001732942 -7.6326985e-005 -5.5043893e-005 2.1525319e-005 0.50498587 -0.85847437
989000000 1.0040952 -0.055663563 -2.1924727e-005 3.2345395e-006 6.5980735e-006 2.0995217e-006 0.49605614 -0.86324608
998500000 1.0047379 -0.056562472 7.7669763e-005 -9.5427669e-005 3.5160144e-007 7.4479103e-005 0.48716596 -0.86811656
1008000000 1.0053773 -0.056899346 -0.0002098109 9.7736862e-005 1.5076714e-005 -2.3641142e-005 0.47839579 -0.87315404
1017500000 1.0035141 -0.057589881 -8.6545942e-006 -4.9674865e-005 -6.8971574e-005 -2.583262e-005 0.46976715 -0.87769961
1027000000 1.0039567 -0.058941618 -0.00015590072 7.4192918e-005 -5.682096e-007 -5.6482982e-005 0.46118474 -0.88208425
1036500000 1.0049882 -0.059250124 0.00013455241 -6.2461395e-006 0.00010661913 -3.5155288e-005 0.45244211 -0.88673824
1046000000 1.0034962 -0.058425069 -1.6225058e-006 5.5505865e-005 -7.1225397e-005 2.8271403e-005 0.44362497 -0.89079154
1055500000 1.0036715 -0.059500434 -1.3599271e-005 -0.00019341007 3.5512101e-005 -6.5296743e-005 0.4351505 -0.8947888
1065000000 1.0045333 -0.060516849 -0.00013160026 -3.9781022e-005 -8.5038257e-005 1.9518582e-006 0.42587119 -0.89979798
1074500000 1.0042409 -0.061410896 -0.00012148728 -0.00010869117 -7.5716634e-005 -1.2685069e-005 0.41675234 -0.9037044
1084000000 1.0045069 -0.061328579 -0.00017994676 2.9174907e-005 -7.759891e-005 4.5686935e-005 0.40802193 -0.9074201
1093500000 1.0036564 -0.061202273 -0.00024420256 -6.6997607e-005 -8.3139857e-006 1.532201e-005 0.39925626 -0.91186988
1103000000 1.0036465 -0.062336255 -2.2428485e-005 -6.2856357e-006 -3.2386044e-006 -5.9630274e-005 0.39022893 -0.91573864
1112500000 1.0045265 -0.061666556 0.00026768545 0.00010730838 -9.2745191e-005 -8.409415e-005 0.38132355 -0.91910475
1122000000 1.0040115 -0.063849039 4.7856807e-005 1.589553e-005 -1.2306954e-005 -1.5688222e-005 0.37137097 -0.92262089
1131500000 1.0039082 -0.06424506 -3.185586e-005 4.7636779e-005 -0.00013071658 -4.2073567e-005 0.36253047 -0.92655271
1141000000 1.0038387 -0.064760499 -0.00017194889 0.00015110015 0.00012561782 1.5322343e-005 0.35307342 -0.92916292
1150500000 1.0032156 -0.064720929 -7.0430491e-005 -2.2096612e-005 -4.3710839e-005 7.9459191e-005 0.34354588 -0.93313444
1160000000 1.0027131 -0.065545201 -0.00015466481 -9.9970921e-006 0.00011125453 -4.3602235e-005 0.33503664 -0.93633741
1169500000 1.0043991 -0.065969981 7.9987993e-005 0.00012603038 -7.4648022e-005 -2.8484752e-005 0.32521603 -0.9398576
1179000000 1.0044718 -0.066175513 9.5343639e-006 2.5548941e-006 -7.8299476e-005 4.9132515e-005 0.31673762 -0.94330496
1188500000 1.004681 -0.06788443 8.1372142e-005 -3.566492e-007 -9.0368143e-005 -7.7503057e-005 0.30718902 -0.94606328
1198000000 1.0038452 -0.066825964 0.00010586602 9.8445322e-005 5.7751418e-005 -8.7360113e-006 0.29758999 -0.94883376
1207500000 1.0041853 -0.067820087 -4.3868029e-005 -6.588018e-005 3.3489614e-005 -8.688838e-005 0.28784168 -0.95182884
1217000000 1.0039821 -0.067673936 8.644801e-005 -2.326982e-005 -4.9538467e-006 3.5120676e-005 0.27844706 -0.9551698
1226500000 1.0048753 -0.068469122 8.6986583e-006 -5.9003072e-005 -9.2879724e-005 -4.6393776e-005 0.26923317 -0.95699239
1236000000 1.0040381 -0.068890765 -0.0001414256 -1.0834317e-005 2.3597622e-005 -9.120709e-005 0.25978464 -0.95987535
1245500000 1.0044615 -0.069647431 -2.702269e-005 3.1385454e-005 6.6762987e-005 -0.00010012841 0.25026119 -0.96282107
1255000000 1.0041577 -0.069447368 -3.7553538e-005 -7.0115188e-005 4.0634026e-005 -1.3184977e-005 0.2402444 -0.9646163
1264500000 1.0044168 -0.070246629 -1.9493287e-005 3.035113e-005 -6.6622903e-005 -2.729488e-005 0.23078756 -0.96671087
1274000000 1.0045289 -0.070761666 -7.7420751e-005 -8.9352019e-005 7.0113972e-005 -6.782073e-007 0.22146422 -0.96909237
1283500000 1.0045564 -0.070835508 -4.2829135e-005 0.00018944862 -7.3020077e-005 -6.5214233e-005 0.21186407 -0.97099262
1293000000 1.0042877 -0.071608528 0.00015756844 6.0299957e-005 -3.7191396e-005 -6.2806786e-005 0.20285805 -0.97283709
1302500000 1.0044507 -0.071766898 -0.00018713066 -8.1033133e-005 5.3832455e-006 -4.9948943e-005 0.19280967 -0.97482842
1312000000 1.0042609 -0.073014505 -5.6688023e-005 0.00010486515 -1.3070912e-006 0.00016790105 0.1828685 -0.976677
1321500000 1.0042319 -0.073539451 -4.5222019e-005 8.7025081e-005 -0.00010070643 -0.0001353321 0.17375299 -0.97860348
1331000000 1.0041589 -0.074225053 8.4530548e-005 8.5805557e-005 0.00011060208 -3.51565e-005 0.16420278 -0.98033702
1340500000 1.0045307 -0.074778683 -5.9465925e-005 2.190635e-005 -0.00010944152 -1.4368246e-005 0.15438202 -0.98185974
1350000000 1.0044595 -0.07551109 -3.988537e-005 -3.3956549e-006 -4.339209e-005 -6.8388268e-005 0.14442052 -0.98376364
1359500000 1.0038992 -0.074727573 -3.1252206e-005 -2.6254376e-005 -4.4367389e-005 -0.00014491784 0.13462761 -0.98462725
1369000000 1.0043311 -0.075528681 -4.9063263e-005 -0.00014391416 2.7573518e-005 4.8163314e-005 0.12578385 -0.98555756
1378500000 1.0036764 -0.076081045 1.7503908e-005 4.127307e-005 -3.4120836e-005 4.9694148e-007 0.11616889 -0.98711991
1388000000 1.0043871 -0.076030098 3.4407612e-006 -1.1759588e-006 -3.8250051e-005 3.8835478e-005 0.1060761 -0.98805469
1397500000 1.0041682 -0.076373838 1.5880662e-005 -1.950953e-006 -0.00012787797 1.8036624e-005 0.096249223 -0.98921329
1407000000 1.0039166 -0.077309549 -0.00011239456 4.3736018e-005 1.3556313e-005 4.0325198e-005 0.086348593 -0.99019027
1416500000 1.0043266 -0.077949651 9.3992938e-005 -5.9696125e-005 -8.4769199e-005 7.8858175e-005 0.076960154 -0.99067986
1426000000 1.0040878 -0.078232646 0.00010646115 3.699871e-005 -5.313068e-005 3.2445307e-005 0.067440026 -0.9914009
1435500000 1.0042688 -0.078648761 3.8242101e-006 3.9430335e-005 1.6354321e-005 8.1608639e-005 0.058445111 -0.9913792
1445000000 1.0041122 -0.079195961 -8.560461e-005 7.020765e-005 -5.6872061e-005 8.4595136e-005 0.047879901 -0.9919948
1454500000 1.0043815 -0.079628356 8.4667416e-005 3.7086822e-005 -2.5112984e-005 6.0712327e-006 0.038899899 -0.99282736
1464000000 1.0041552 -0.080218829 -0.00011061593 -0.00010614857 -0.00012240978 0.00010307613 0.028985376 -0.9932884
1473500000 1.0040048 -0.08025904 0.00010326999 6.8303561e-005 4.8827016e-005 3.8475016e-005 0.018991392 -0.99321252
1483000000 1.0039498 -0.080904789 -8.5870954e-005 2.5474004e-005 1.0584308e-006 -4.9742639e-006 0.0094575975 -0.99359256
1492500000 1.0044035 -0.081309423 -1.4543758e-005 9.3198541e-005 3.9630129e-005 1.5566928e-005 -0.00058068038 -0.9938159
1502000000 1.0039874 -0.081161723 4.1064985e-005 -3.2473949e-005 -5.9685817e-006 5.5793418e-005 -0.010080228 -0.99376261
1511500000 1.0040483 -0.082706228 0.00016036666 -3.5725323e-005 2.877587e-005 1.5935124e-005 -0.019840783 -0.99299461
1521000000 1.0030485 -0.082873546 0.00014569459 0.00012086213 -5.2643769e-005 0.00010452804 -0.029226057 -0.99217278
1530500000 1.0037702 -0.083627254 4.9090002e-005 -0.00011133805 0.00010303611 9.7245473e-005 -0.039819472 -0.99218911
1540000000 1.0034785 -0.083668269 0.00011541667 -4.7040735e-006 -6.513187e-005 5.6429406e-005 -0.049037594 -0.99172056
1549500000 1.0031824 -0.084236965 3.6577436e-005 -6.0763901e-005 -9.0125206e-005 0.00011383581 -0.058552898 -0.99134433
1559000000 1.0035539 -0.085115038 -5.1132203e-005 6.8339352e-005 -2.3503764e-005 4.99862e-005 -0.067772985 -0.9910993
1568500000 1.0040488 -0.085408434 -0.00012881486 -8.1436279e-005 2.2045919e-005 3.6469122e-005 -0.077829018 -0.9900015
1578000000 1.0037545 -0.086287551 -5.6680408e-005 -8.5888074e-005 2.55224e-005 8.8905806e-005 -0.087261654 -0.9895429
1587500000 1.0034208 -0.086474337 3.2243549e-006 6.5484594e-005 4.3753207e-005 3.1131622e-005 -0.096485011 -0.98829776
1597000000 1.0041591 -0.086616188 2.2979777e-005 -0.00015446106 7.159161e-005 -5.5304514e-005 -0.10610262 -0.98712701
1606500000 1.0038229 -0.087146878 -2.9962643e-005 7.1259192e-006 7.4721844e-005 2.6717418e-005 -0.11616261 -0.9859181
1616000000 1.0027546 -0.088052548 0.00011514922 5.8686419e-005 3.2893449e-006 7.0022921e-005 -0.1247162 -0.98440588
1625500000 1.0039053 -0.088037558 8.0702579e-005 -5.0551895e-005 -6.3325861e-005 -0.00010456555 -0.13523941 -0.98358184
1635000000 1.0036594 -0.08763466 3.0718627e-005 -3.7168391e-010 -1.1835747e-006 5.3907017e-005 -0.14488618 -0.9820931
1644500000 1.0030911 -0.088519499 -2.9158522e-005 6.687209e-005 -3.8346701e-005 -1.8139971e-006 -0.15476869 -0.98043031
1654000000 1.0027965 -0.088681526 -0.00011310189 -1.8477696e-005 0.00010242373 -9.4196483e-005 -0.16358127 -0.97922212
1663500000 1.0025359 -0.089085914 3.7606627e-005 -0.00011089427 0.00011144392 -5.4301996e-005 -0.17302521 -0.97752881
1673000000 1.0027022 -0.090130523 -0.00021068139 -3.9978688e-005 1.7905864e-005 -1.5610864e-005 -0.18250677 -0.97546011
1682500000 1.0027219 -0.090337351 -6.5165718e-006 6.7603709e-005 -7.4243668e-005 5.1671781e-005 -0.19184496 -0.97430015
1692000000 1.0030664 -0.090098508 6.7479341e-005 4.1571652e-006 1.6367389e-005 9.0912232e-005 -0.20166345 -0.9725244
1701500000 1.0022812 -0.09041094 6.5076245e-005 -5.6954217e-005 3.3124958e-005 -1.845509e-005 -0.21045958 -0.97018391
1711000000 1.0020168 -0.090520039 7.1834489e-005 6.7457993e-005 -5.5813383e-005 -2.4475999e-005 -0.2203337 -0.96780586
1720500000 1.0024111 -0.09099099 -9.0286856e-005 2.1903972e-005 -9.0578396e-005 3.7672446e-005 -0.22929901 -0.96522796
1730000000 1.0024272 -0.091195107 3.0139239e-005 -9.6496064e-005 -9.3707167e-005 -5.929884e-005 -0.23880485 -0.96309692
1739500000 1.00273 -0.091841169 4.0047496e-005 2.1112241e-005 -1.2380038e-005 -6.9105417e-006 -0.24842013 -0.96042681
1749000000 1.0026144 -0.091699198 -2.7155123e-005 -2.6461177e-005 -5.175481e-006 -3.1095038e-005 -0.25757784 -0.95859635
1758500000 1.0024579 -0.092745878 1.5552563e-005 -4.9762919e-005 8.7510809e-005 3.3181517e-005 -0.26734325 -0.95534742
1768000000 1.0025423 -0.093520075 -4.4755332e-005 -6.9486987e-006 -7.371496e-005 -5.3342854e-005 -0.2758531 -0.95285404
1777500000 1.0021217 -0.09411408 7.6275217e-005 9.5972864e-006 -6.4921136e-005 5.2680673e-005 -0.28617838 -0.95048392
1787000000 1.0024055 -0.094267458 4.3540294e-005 8.2004262e-005 6.9905742e-005 5.0466897e-005 -0.29544479 -0.94740099
1796500000 1.0021218 -0.094587229 -6.8550515e-005 -2.4055164e-005 -2.2085647e-005 4.5385626e-005 -0.30379894 -0.94456249
1806000000 1.0024992 -0.095594935 -5.9981783e-005 -5.9524933e-005 -5.9022718e-006 0.00011273871 -0.31293479 -0.94108945
1815500000 1.0019226 -0.096386783 5.4748696e-005 -5.7703543e-005 0.00010887317 -4.8421192e-005 -0.32252565 -0.93799323
1825000000 1.0014812 -0.096131958 6.1374027e-005 2.8988616e-005 2.3233921e-005 -8.0194935e-005 -0.33122653 -0.93513101
1834500000 1.0017501 -0.096924342 0.00010975722 -3.2666368e-005 -2.2028895e-005 -2.3861916e-005 -0.34023702 -0.93273461
1844000000 1.0011203 -0.09723302 -9.0217349e-005 4.7854654e-005 -3.4449444e-005 3.0348565e-005 -0.34930205 -0.92838854
1853500000 1.0018923 -0.09741085 2.4009181e-005 8.0706432e-006 9.3049537e-005 -2.2164813e-005 -0.3583608 -0.92517555
1863000000 1.0003364 -0.098060861 1.9281802e-005 1.812301e-005 -5.6296205e-005 2.4329784e-005 -0.36673537 -0.92142892
1872500000 1.0017136 -0.098031871 4.5022229e-005 3.011136e-005 -4.1479831e-005 -0.00010567439 -0.37679559 -0.91729921
1882000000 1.001054 -0.099418849 3.3293371e-005 3.5700286e-005 -7.1754592e-005 -1.3160357e-006 -0.38480246 -0.91335386
1891500000 1.0017498 -0.098438762 3.3170261e-005 5.9488753e-005 -7.128391e-005 -4.2424967e-005 -0.39420974 -0.91007441
1901000000 1.0010253 -0.099096358 -8.8192024e-007 1.8080385e-005 4.0703126e-005 -0.00011036282 -0.40304664 -0.90540045
1910500000 1.0007235 -0.099936172 5.2248179e-005 -0.00017658451 -1.6516429e-005 -2.7023976e-005 -0.41157719 -0.90177679
1920000000 1.0009085 -0.10099006 0.00012467615 -4.7983573e-005 -5.1575855e-005 -4.0288644e-005 -0.42092562 -0.89852679
1929500000 1.0002764 -0.10066756 -5.1832511e-005 -3.7320198e-005 4.1271498e-005 3.2418706e-005 -0.4291667 -0.89370996
1939000000 1.0003754 -0.10193259 -6.7989618e-005 0.00011248431 -6.3781255e-005 -0.00014486353 -0.43805417 -0.88984472
1948500000 1.0005535 -0.10204902 6.0518669e-005 2.9646765e-006 8.1036442e-006 0.00014640376 -0.44688937 -0.88488746
1958000000 1.0008535 -0.10257737 -8.6822118e-005 8.2327433e-006 -2.4054441e-005 5.3243471e-006 -0.45531854 -0.8799997
1967500000 1.0002906 -0.10330332 1.7035531e-005 -6.0952832e-005 2.0812895e-005 2.8579298e-005 -0.46319047 -0.87586856
1977000000 1.0006733 -0.1032254 -2.6021162e-005 -3.8822647e-005 -0.00010356048 -7.1448017e-006 -0.47158635 -0.87132108
1986500000 1.0011822 -0.10424314 8.7940993e-005 -2.5652931e-005 -5.7896512e-005 7.6634671e-005 -0.48031667 -0.86680561
