!Agilent Technologies,N5227A,US51270349,A.09.80.20
!Agilent N5227A: A.09.80.20
!Date: Wednesday, February 17, 2021 19:56:43
!Correction: S11(Full 2 Port(1,2)) 
!S21(Full 2 Port(1,2)) 
!S12(Full 2 Port(1,2)) 
!S22(Full 2 Port(1,2)) 
!S2P File: Measurements: S11, S21, S12, S22:
# Hz S  RI   R 50
400000000 -0.00051930029 -0.006832954 0.91640097 -0.39285141 0.91528165 -0.39260417 -0.00098945422 -0.0064886268
409500000 -0.00049784337 -0.0080343327 0.91312861 -0.40163031 0.91132957 -0.40097293 -0.0013128937 -0.0071688644
419000000 -0.00066714454 -0.0085460432 0.90887237 -0.40972728 0.9076609 -0.40984288 -0.00049711898 -0.0076116039
428500000 -0.00060227141 -0.0076480987 0.90510803 -0.41852796 0.90282249 -0.41813508 -0.00067511876 -0.008232438
438000000 -0.00071646686 -0.0080351504 0.90016598 -0.42621112 0.89852262 -0.42717159 9.4615854e-007 -0.0078788931
447500000 -0.00098464591 -0.0084964428 0.89596903 -0.43578929 0.89500469 -0.43492091 -0.00086467789 -0.0078524919
457000000 -0.00078693056 -0.0088924468 0.89163351 -0.44407925 0.89052606 -0.44374448 -0.0012077439 -0.0082318
466500000 -0.0020740575 -0.0085397996 0.88770455 -0.45232603 0.8864305 -0.45172569 -0.0010285163 -0.0094142575
476000000 -0.002080244 -0.0082775643 0.88322586 -0.46108556 0.88204271 -0.46049014 -0.0011574136 -0.0088711167
485500000 -0.0026289546 -0.0088887205 0.87839305 -0.46899807 0.8774668 -0.46845099 -0.0012737105 -0.0086964145
495000000 -0.0022402219 -0.0087256823 0.87400097 -0.47748414 0.87285411 -0.47698084 -0.0021044787 -0.0086459313
504500000 -0.0021663408 -0.0091557475 0.86884689 -0.48561296 0.86796612 -0.48519588 -0.0016757983 -0.0081332242
514000000 -0.0019825227 -0.009442267 0.86444157 -0.49390888 0.86326772 -0.49297106 -0.0012417812 -0.008661475
523500000 -0.0023717987 -0.010446332 0.86007053 -0.50239569 0.85882896 -0.50166094 -0.0019277156 -0.009311704
533000000 -0.0023636881 -0.010385531 0.85484493 -0.5100199 0.85341412 -0.50996661 -0.0012214299 -0.0099231862
542500000 -0.0021458822 -0.010322276 0.85000372 -0.51864564 0.848813 -0.51740891 -0.0019075187 -0.010806834
552000000 -0.0024399336 -0.010034116 0.84397584 -0.52707124 0.84370518 -0.52541524 -0.0024847442 -0.0096086543
561500000 -0.0026544703 -0.010848232 0.8398453 -0.53323817 0.83878124 -0.53338581 -0.0019571318 -0.011023019
571000000 -0.0032704559 -0.010639934 0.83348936 -0.54208559 0.83303529 -0.54158741 -0.0018310446 -0.010419959
580500000 -0.0029468171 -0.010879641 0.82866567 -0.54942328 0.82789528 -0.5490132 -0.0019714928 -0.010997863
590000000 -0.0026447254 -0.01074421 0.82344127 -0.55763304 0.82213289 -0.55709583 -0.0012171774 -0.010802141
599500000 -0.0024960788 -0.010142063 0.8184514 -0.56598186 0.81621468 -0.56507403 -0.0020403822 -0.01025193
609000000 -0.0037593408 -0.01093709 0.81280172 -0.57346654 0.8115294 -0.57271266 -0.0031120395 -0.010380402
618500000 -0.0036194581 -0.010528713 0.80722702 -0.58104652 0.80544728 -0.58044112 -0.0023416427 -0.012093512
628000000 -0.0047328905 -0.011236643 0.80136269 -0.58852601 0.8002426 -0.58820635 -0.0032818862 -0.012030703
637500000 -0.0042863293 -0.011505629 0.79539114 -0.59603196 0.79497337 -0.59570551 -0.0033871022 -0.012665715
647000000 -0.004738105 -0.012040491 0.78958881 -0.60285515 0.78862405 -0.60289896 -0.0034522936 -0.012103986
656500000 -0.0046989885 -0.012555121 0.78380483 -0.61065215 0.78275752 -0.61006141 -0.0039346735 -0.011907249
666000000 -0.0049747867 -0.012313643 0.77843785 -0.61816883 0.7770195 -0.61752266 -0.0036552642 -0.011919472
675500000 -0.0041559432 -0.012904711 0.77160096 -0.62538993 0.7706067 -0.62495828 -0.0043308432 -0.011909088
685000000 -0.0050223488 -0.012446259 0.76573724 -0.63254917 0.76469368 -0.63200259 -0.0037844535 -0.012802843
694500000 -0.0049912729 -0.012185396 0.75983542 -0.64002162 0.75911635 -0.63978547 -0.0043347408 -0.012349793
704000000 -0.0054148873 -0.012254414 0.75363743 -0.64712024 0.75240302 -0.64600754 -0.0044044121 -0.012852919
713500000 -0.0060634268 -0.012338825 0.74745369 -0.6537677 0.74606496 -0.65322316 -0.004885585 -0.011919453
723000000 -0.0060390607 -0.013047455 0.74099278 -0.66075248 0.74029344 -0.66026407 -0.0043877494 -0.013116877
732500000 -0.0057713161 -0.013022668 0.73421884 -0.6676327 0.73362005 -0.66717082 -0.004009733 -0.01392419
742000000 -0.0051432629 -0.012859037 0.7280581 -0.67494529 0.72710073 -0.67400283 -0.0048704897 -0.013437404
751500000 -0.0059630438 -0.013545573 0.72156996 -0.68096846 0.72059083 -0.68081933 -0.0049567861 -0.014166671
761000000 -0.0072010467 -0.013740277 0.71435016 -0.68874401 0.71430814 -0.68744159 -0.0056231311 -0.013046679
770500000 -0.0065433905 -0.014182026 0.70914799 -0.69503677 0.70786709 -0.69377828 -0.0046465662 -0.016076267
780000000 -0.0072332122 -0.014078978 0.70228547 -0.70178807 0.70059186 -0.70065892 -0.0057774535 -0.015628811
789500000 -0.00696448 -0.014083368 0.69516754 -0.70746171 0.69404656 -0.70716733 -0.0048900214 -0.015584931
799000000 -0.0064858585 -0.014531617 0.68825471 -0.71415466 0.68675697 -0.71366632 -0.0062800772 -0.01444796
808500000 -0.0071126441 -0.014058281 0.68083167 -0.72096026 0.6800741 -0.7197063 -0.0060047503 -0.014394357
818000000 -0.0074167829 -0.014407822 0.67437923 -0.72694737 0.67305052 -0.72640485 -0.0060298364 -0.014686927
827500000 -0.0071904273 -0.014609712 0.66751707 -0.73330015 0.66637152 -0.73242348 -0.0060536354 -0.01471557
837000000 -0.0066758618 -0.014109166 0.66035825 -0.73964787 0.6589908 -0.73907602 -0.0063978727 -0.015215714
846500000 -0.0080711059 -0.013943128 0.65379727 -0.74569434 0.65198278 -0.74456048 -0.0062136613 -0.014748391
856000000 -0.0081509268 -0.014473356 0.64598501 -0.75205535 0.6452266 -0.75111097 -0.0073367958 -0.015021412
865500000 -0.0082491413 -0.0135756 0.63815463 -0.75714236 0.63791758 -0.75672692 -0.0069819274 -0.01489998
875000000 -0.0085693514 -0.014213051 0.6313141 -0.76386946 0.63038582 -0.76289231 -0.0065372153 -0.015166823
884500000 -0.0090953782 -0.014291991 0.62389231 -0.76960391 0.62339759 -0.76845586 -0.006354623 -0.015539634
894000000 -0.0088819005 -0.014413035 0.61728942 -0.7753517 0.61597085 -0.77479887 -0.0082111498 -0.01625661
903500000 -0.0087880073 -0.015436954 0.6087721 -0.78116882 0.6081627 -0.77976763 -0.0085443547 -0.015983725
913000000 -0.0097515024 -0.015066975 0.60203743 -0.78665245 0.60105282 -0.78563279 -0.0085938266 -0.015858503
922500000 -0.0096470863 -0.015444193 0.5940116 -0.79220808 0.59351391 -0.79141819 -0.0084305406 -0.016180646
932000000 -0.0098203421 -0.015690869 0.58635163 -0.7973507 0.58624452 -0.79671383 -0.0083464403 -0.015954681
941500000 -0.010199533 -0.015349038 0.57931077 -0.80335206 0.57796204 -0.80201495 -0.0090439478 -0.016902069
951000000 -0.010863245 -0.014773088 0.57099009 -0.80869925 0.57016504 -0.80772525 -0.009032337 -0.016986333
960500000 -0.010863669 -0.015393427 0.56355041 -0.81320381 0.56267434 -0.81270099 -0.010215431 -0.017750556
970000000 -0.01158375 -0.015131854 0.55601996 -0.81907558 0.55469447 -0.8180716 -0.0089990795 -0.016322268
979500000 -0.011352396 -0.015069534 0.54792339 -0.82435465 0.54707909 -0.82306051 -0.0087965121 -0.016985502
989000000 -0.011765309 -0.014584576 0.54012108 -0.82901293 0.53936988 -0.82766759 -0.0093864044 -0.017794056
998500000 -0.012293995 -0.0147212 0.53237522 -0.83383411 0.53163576 -0.83339798 -0.0098262224 -0.017866964
1008000000 -0.012727277 -0.014965091 0.52452421 -0.83886415 0.52357388 -0.83792347 -0.010687325 -0.018614685
1017500000 -0.013085749 -0.014892177 0.51619709 -0.84336865 0.51570785 -0.84244758 -0.010873662 -0.017310599
1027000000 -0.013231955 -0.015457507 0.50821471 -0.8483277 0.50731218 -0.84748477 -0.011012997 -0.017227236
1036500000 -0.013647814 -0.015842598 0.50052458 -0.85282356 0.49917614 -0.85200042 -0.011212483 -0.018153938
1046000000 -0.01318336 -0.015421931 0.49203396 -0.8572067 0.49103978 -0.85653841 -0.010365316 -0.017783564
1055500000 -0.013116196 -0.014794935 0.4834975 -0.86133689 0.48321182 -0.8607834 -0.01158932 -0.017405376
1065000000 -0.014154118 -0.01547902 0.47539997 -0.86608529 0.47502804 -0.8654061 -0.012334663 -0.017988194
1074500000 -0.014381302 -0.01530029 0.46752074 -0.87068945 0.46668741 -0.86980355 -0.01257034 -0.017391194
1084000000 -0.014476472 -0.015558401 0.45908034 -0.87515938 0.45886707 -0.87405181 -0.012231133 -0.017516926
1093500000 -0.014764811 -0.015485362 0.45093462 -0.87885237 0.45022589 -0.87804943 -0.01232804 -0.01849813
1103000000 -0.014811386 -0.015580738 0.44260076 -0.88292146 0.44166678 -0.8821153 -0.012674011 -0.018140253
1112500000 -0.014808261 -0.015622492 0.43391347 -0.88724715 0.43357745 -0.88562292 -0.01328714 -0.018479122
1122000000 -0.015910877 -0.015269371 0.42543563 -0.89103884 0.42505312 -0.89032251 -0.014319763 -0.017599996
1131500000 -0.015995778 -0.014956233 0.41705269 -0.8947506 0.41632399 -0.89397901 -0.014071389 -0.017532671
1141000000 -0.016012967 -0.015443059 0.4086245 -0.89878136 0.40775383 -0.89767182 -0.013852977 -0.017849436
1150500000 -0.01728382 -0.014997731 0.39980578 -0.90271837 0.39877445 -0.90132582 -0.014094524 -0.017536959
1160000000 -0.015844949 -0.015215199 0.39109889 -0.90613443 0.39033842 -0.90490675 -0.014133745 -0.017475085
1169500000 -0.016978081 -0.015122322 0.38279369 -0.90941298 0.38212359 -0.90855944 -0.015467581 -0.017749297
1179000000 -0.016434073 -0.015532253 0.37484062 -0.91289568 0.37339002 -0.91174096 -0.015291752 -0.017763615
1188500000 -0.016852232 -0.01545276 0.36517337 -0.9165495 0.36455873 -0.91562682 -0.015614904 -0.017470244
1198000000 -0.016681261 -0.015202979 0.35672536 -0.91963899 0.3558687 -0.91840661 -0.014767563 -0.017872784
1207500000 -0.017230406 -0.015481898 0.34804517 -0.92331946 0.347157 -0.92190242 -0.015882211 -0.017876487
1217000000 -0.017801162 -0.014622089 0.33902067 -0.92642576 0.33876789 -0.92512351 -0.015767315 -0.017655207
1226500000 -0.017722772 -0.014678635 0.33040762 -0.92924637 0.32953835 -0.92821455 -0.016542971 -0.018036216
1236000000 -0.017882643 -0.014623262 0.32198492 -0.93194443 0.32089779 -0.9310475 -0.015775289 -0.018158156
1245500000 -0.017895846 -0.01447482 0.31287041 -0.93547869 0.3123399 -0.9342159 -0.016306169 -0.018285491
1255000000 -0.018595815 -0.014002499 0.30392426 -0.93786657 0.30322784 -0.93677998 -0.016530272 -0.018580388
1264500000 -0.018986054 -0.013841363 0.29530847 -0.94058192 0.29416636 -0.93960017 -0.017884657 -0.018030899
1274000000 -0.018802376 -0.013675055 0.28610119 -0.94311839 0.28532913 -0.94225144 -0.017552022 -0.018053221
1283500000 -0.019217685 -0.013823642 0.2771562 -0.94590205 0.27659351 -0.94447517 -0.017202895 -0.018029055
1293000000 -0.019143857 -0.013847542 0.26825875 -0.94807428 0.26767793 -0.94662118 -0.017485773 -0.018108413
1302500000 -0.019985234 -0.013400698 0.25947309 -0.95050716 0.25887603 -0.94941014 -0.017951643 -0.018379694
1312000000 -0.020234318 -0.01301246 0.25016388 -0.95298356 0.24965392 -0.95182538 -0.019074468 -0.017805094
1321500000 -0.020148981 -0.013235149 0.24121831 -0.95524067 0.24068934 -0.95406121 -0.019322775 -0.017482672
1331000000 -0.020547397 -0.013341978 0.2326286 -0.95760012 0.23206462 -0.95611203 -0.019365871 -0.016684091
1340500000 -0.020746639 -0.013703467 0.22323996 -0.9591915 0.22301795 -0.95808983 -0.019351566 -0.017014332
1350000000 -0.021273654 -0.013106292 0.21395084 -0.96118969 0.21375011 -0.96046877 -0.019372653 -0.017245477
1359500000 -0.021272497 -0.01320668 0.20505247 -0.96320885 0.20447935 -0.96184647 -0.019387832 -0.017869266
1369000000 -0.021010069 -0.012746559 0.19629243 -0.96471667 0.19527598 -0.96357894 -0.020354651 -0.017576331
1378500000 -0.02104383 -0.013041062 0.18710193 -0.9665255 0.18632318 -0.96535647 -0.019880651 -0.017532825
1388000000 -0.021552566 -0.012592875 0.17792381 -0.96830386 0.17723495 -0.96746284 -0.020155013 -0.017645173
1397500000 -0.021850504 -0.012503795 0.16909756 -0.96995729 0.16787083 -0.9684754 -0.020183174 -0.018030673
1407000000 -0.022076029 -0.012440441 0.15961984 -0.97129279 0.15865485 -0.97004563 -0.020498177 -0.017406952
1416500000 -0.022140428 -0.011988055 0.15028065 -0.97225606 0.1497259 -0.97145885 -0.021501744 -0.016711654
1426000000 -0.022452336 -0.012363711 0.14170271 -0.97382027 0.14037955 -0.97219867 -0.021651322 -0.01673419
1435500000 -0.022211863 -0.011394753 0.13223059 -0.975043 0.13128082 -0.97371131 -0.021710392 -0.016459944
1445000000 -0.022947589 -0.011895378 0.12305836 -0.97632462 0.1225595 -0.97498339 -0.021767208 -0.016430069
1454500000 -0.023053965 -0.011811106 0.11413708 -0.97699648 0.11310001 -0.97650445 -0.022261482 -0.016632322
1464000000 -0.023324618 -0.011432395 0.10483446 -0.97791731 0.10391217 -0.97729379 -0.022588065 -0.016704071
1473500000 -0.023501687 -0.011207634 0.095310412 -0.97924662 0.094605163 -0.97790617 -0.022657394 -0.016413631
1483000000 -0.023261955 -0.011112291 0.086041547 -0.98005319 0.085229956 -0.97859424 -0.022587329 -0.016012365
1492500000 -0.02418421 -0.011187039 0.077035524 -0.98068178 0.076671131 -0.97936612 -0.023401601 -0.015976243
1502000000 -0.023842793 -0.011461754 0.06797494 -0.98101723 0.067325346 -0.97964758 -0.022864116 -0.016460208
1511500000 -0.02425476 -0.010373757 0.058255065 -0.98163158 0.057646841 -0.98023266 -0.023276787 -0.015677122
1521000000 -0.024004888 -0.0099813156 0.049353361 -0.9819299 0.048481464 -0.98029339 -0.023594433 -0.01543818
1530500000 -0.024736347 -0.010293867 0.03960437 -0.98227853 0.039308399 -0.9806003 -0.024366612 -0.014841073
1540000000 -0.024780657 -0.0098718023 0.030740181 -0.98248804 0.030247325 -0.98080319 -0.023751557 -0.014896762
1549500000 -0.024825182 -0.010024295 0.021545535 -0.98265558 0.020818507 -0.98119003 -0.023708416 -0.015097762
1559000000 -0.024994656 -0.010188016 0.012255625 -0.98253745 0.011745143 -0.98138696 -0.024188025 -0.014747379
1568500000 -0.025240973 -0.0095093027 0.0030555308 -0.98263669 0.0023257593 -0.98186511 -0.025129486 -0.014886078
1578000000 -0.024948925 -0.0096934708 -0.0065979683 -0.98256773 -0.0066716615 -0.9811551 -0.025160618 -0.014180647
1587500000 -0.025049033 -0.0094016083 -0.015498612 -0.98192525 -0.015833203 -0.98112613 -0.024743831 -0.014074875
1597000000 -0.024833318 -0.009149 -0.024573632 -0.98209631 -0.025250448 -0.9808653 -0.024907481 -0.014154599
1606500000 -0.025185702 -0.0086056506 -0.034139056 -0.98164809 -0.034354173 -0.98056078 -0.025263235 -0.013933252
1616000000 -0.024595961 -0.0084591853 -0.042917628 -0.98119205 -0.043600231 -0.97962844 -0.02489269 -0.013693337
1625500000 -0.025286134 -0.0084523661 -0.052177027 -0.98087132 -0.05272752 -0.97956991 -0.026208319 -0.013628058
1635000000 -0.025418092 -0.0082231499 -0.061393153 -0.97996521 -0.062013853 -0.97893912 -0.0260631 -0.013430736
1644500000 -0.025766842 -0.0077686254 -0.070767447 -0.97936857 -0.071483925 -0.97790539 -0.025813079 -0.012960019
1654000000 -0.025761912 -0.0076575624 -0.079906747 -0.9785732 -0.080302566 -0.9772256 -0.025494779 -0.013205846
1663500000 -0.026060181 -0.007710644 -0.089076631 -0.97756159 -0.089259364 -0.97611809 -0.025753291 -0.01352473
1673000000 -0.025786178 -0.0069065373 -0.098562486 -0.97665787 -0.098532535 -0.97554737 -0.026454451 -0.012655685
1682500000 -0.026123954 -0.0074446895 -0.10739779 -0.97574538 -0.1074893 -0.97418791 -0.026992384 -0.012304694
1692000000 -0.026648698 -0.0073669311 -0.11618529 -0.97457719 -0.11671148 -0.97338915 -0.027073631 -0.012553407
1701500000 -0.026407611 -0.0071413238 -0.12541117 -0.97358847 -0.12560916 -0.97163522 -0.026572686 -0.012334852
1711000000 -0.026515556 -0.0067551099 -0.13455524 -0.9720279 -0.13486457 -0.97044659 -0.026769845 -0.01254955
1720500000 -0.025989056 -0.0062036524 -0.14378828 -0.97036761 -0.14410965 -0.96925145 -0.027151665 -0.012410101
1730000000 -0.026332948 -0.0062441193 -0.15280916 -0.96907651 -0.15348703 -0.96769273 -0.02748614 -0.012099304
1739500000 -0.026417885 -0.0055446099 -0.16229306 -0.96770012 -0.16236037 -0.96627599 -0.027326595 -0.011606038
1749000000 -0.026842467 -0.0059191487 -0.17084061 -0.96653086 -0.17134194 -0.96476841 -0.027483525 -0.012135146
1758500000 -0.026941216 -0.0049664909 -0.18019386 -0.96431398 -0.18091908 -0.96296024 -0.02792434 -0.011701714
1768000000 -0.026770364 -0.0048980317 -0.1895172 -0.96248454 -0.18980204 -0.960751 -0.028326469 -0.011178395
1777500000 -0.027662639 -0.0046216357 -0.19810778 -0.96078289 -0.19902837 -0.95901978 -0.028882965 -0.010740489
1787000000 -0.027607854 -0.004437454 -0.20733026 -0.95857793 -0.20793179 -0.95721567 -0.028917778 -0.010082114
1796500000 -0.027197149 -0.0041943071 -0.216048 -0.9563067 -0.21678863 -0.9550522 -0.028675012 -0.010309419
1806000000 -0.027661908 -0.0035693343 -0.22535133 -0.95433956 -0.22568619 -0.95306349 -0.029162727 -0.0097283712
1815500000 -0.02815708 -0.0039168806 -0.23431785 -0.95236856 -0.23467334 -0.95093477 -0.028954033 -0.0094876532
1825000000 -0.027872238 -0.0041541141 -0.24289432 -0.95000398 -0.2430435 -0.94847351 -0.029099459 -0.0094604865
1834500000 -0.028000113 -0.0041657598 -0.25195175 -0.94781923 -0.25229192 -0.94577938 -0.029617678 -0.0093978224
1844000000 -0.028121507 -0.003537148 -0.26070297 -0.94483155 -0.26076314 -0.94344008 -0.02899332 -0.0088528786
1853500000 -0.028199818 -0.0033468399 -0.26958981 -0.94230354 -0.26994362 -0.94115317 -0.029223995 -0.008541231
1863000000 -0.027551489 -0.0033148066 -0.27840444 -0.93958014 -0.27876318 -0.93863195 -0.028629523 -0.0089017106
1872500000 -0.027979059 -0.0025750343 -0.28708687 -0.93724245 -0.28796175 -0.9356094 -0.029686343 -0.0083742766
1882000000 -0.02721897 -0.0019424964 -0.2959128 -0.93421572 -0.29642919 -0.93247521 -0.029393541 -0.0076874187
1891500000 -0.028266072 -0.0018786307 -0.30508664 -0.93157476 -0.30491716 -0.9299472 -0.030680064 -0.0078936778
1901000000 -0.02813877 -0.0011529243 -0.31345558 -0.92830831 -0.31378537 -0.92640102 -0.030482767 -0.0073148883
1910500000 -0.028182171 -0.0011250854 -0.32204035 -0.92509562 -0.3223933 -0.92409813 -0.030153403 -0.0073520839
1920000000 -0.028632781 -0.0011926831 -0.33104855 -0.92227107 -0.33134207 -0.92077166 -0.030158678 -0.0068112947
1929500000 -0.028345067 -0.00043465965 -0.33966362 -0.91899025 -0.34017587 -0.9174819 -0.030667903 -0.007092989
1939000000 -0.028742336 -0.00075761805 -0.34804136 -0.91570169 -0.34846213 -0.91422158 -0.030589987 -0.0065054926
1948500000 -0.028863305 0.0003334372 -0.35664788 -0.91232622 -0.35700026 -0.91063839 -0.030650824 -0.0058475682
1958000000 -0.029217152 0.00064295204 -0.36568654 -0.90882343 -0.36610347 -0.90742195 -0.030934578 -0.005591651
1967500000 -0.028441431 0.00080603361 -0.37392002 -0.90561867 -0.37418038 -0.90379876 -0.030416179 -0.0051379008
1977000000 -0.028288424 0.00066176633 -0.38227713 -0.90198284 -0.38242882 -0.90027905 -0.030980119 -0.0052454658
1986500000 -0.028418399 0.0010692298 -0.39094424 -0.89824069 -0.39115447 -0.89659899 -0.031656839 -0.0045855585
1996000000 -0.028131448 0.00045141944 -0.39920399 -0.89453363 -0.39917251 -0.89247155 -0.030945735 -0.0038635323
2005500000 -0.028792517 0.0014522951 -0.40729386 -0.89039791 -0.40761793 -0.88866037 -0.030615425 -0.0040053395
2015000000 -0.028637439 0.0015221736 -0.41572651 -0.88617629 -0.41566861 -0.88486725 -0.030789874 -0.003758399
2024500000 -0.027853038 0.0022661434 -0.42393681 -0.88251495 -0.42387474 -0.88096046 -0.03076518 -0.0041086175
2034000000 -0.028399318 0.002523788 -0.432677 -0.87851804 -0.43230206 -0.87711227 -0.031640537 -0.0041945619
2043500000 -0.028632026 0.0027763054 -0.44061509 -0.87390631 -0.44023243 -0.87261784 -0.031537119 -0.003702343
2053000000 -0.02835701 0.0027691261 -0.44854158 -0.87004054 -0.44870943 -0.86835265 -0.031284966 -0.0028381478
2062500000 -0.028800948 0.0035031927 -0.45659953 -0.86570793 -0.45707726 -0.8640362 -0.031311128 -0.0025478429
2072000000 -0.028483108 0.0037861671 -0.46463066 -0.86137438 -0.46505833 -0.8597635 -0.031350635 -0.0026231608
2081500000 -0.028434504 0.0037499564 -0.47309184 -0.85688573 -0.47279903 -0.85517699 -0.031777624 -0.0020713266
2091000000 -0.027973516 0.0045679891 -0.48103347 -0.85204279 -0.48106325 -0.8506642 -0.032132961 -0.0016394207
