!Nueva Lista de parametros corregidos 
# Hz S RI R 50 
400000000 	0.003180186582041899 	0.00359202610342507 		0.8546719551507858 	0.5325449175536512 		0.992613085628623 	0.15292909835597038 		-0.0016560590070566648 	0.006418761489367124 	
409500000 	0.002172470767236063 	0.002396732217511393 		0.8472362284000697 	0.5435865546508778 		0.9926437901705497 	0.1563931050036443 		-0.0029996567951455656 	0.005727410511851156 	
419000000 	0.0015263963762918301 	0.0025377415651159866 		0.8408984303092252 	0.5547965077710736 		0.9923506367787155 	0.159925820393089 		-0.0017829420086268241 	0.004698898911871544 	
428500000 	0.002645027299301162 	0.0033054309967053904 		0.8328387747147923 	0.5655574240017308 		0.9920283810234787 	0.16353116964364314 		-0.0011710008140334764 	0.004803941292196484 	
438000000 	0.0031741049493361163 	0.003899482492880422 		0.8272206888131177 	0.5770649045049655 		0.9911817015380383 	0.1671443391494507 		0.0002819253729940527 	0.005861182088975284 	
447500000 	0.0032530739743243517 	0.004201833467811837 		0.8186848635927608 	0.5884339304917772 		0.9905540499257303 	0.1703710278856565 		-0.0008253936338195209 	0.006082874572761364 	
457000000 	0.001780489477052791 	0.0027645662414537515 		0.8112723303464751 	0.5989747091123152 		0.9902924554940628 	0.17403887312618863 		-0.0006663303255447033 	0.006523944845992076 	
466500000 	0.002923809275890832 	0.0030269292674583795 		0.8035379709275351 	0.6095381910895588 		0.9898356970500266 	0.17747465549199587 		-0.0005315506506842907 	0.006864430849350982 	
476000000 	0.002913763348610788 	0.0043450295881232144 		0.7951576662046241 	0.6200855570206281 		0.9889894166516502 	0.1810376266600172 		0.0005637981741069304 	0.007230211143337662 	
485500000 	0.002440759692916076 	0.004898899590092275 		0.7875411032188725 	0.6308335314604777 		0.9884114910452066 	0.18489413638467486 		0.0003658989852255558 	0.007646013346762166 	
495000000 	0.00259430462229644 	0.004460044574526975 		0.7794785102999412 	0.6413393401642273 		0.9878957467104875 	0.18850057477605783 		-4.307007386597643e-06 	0.008477606716936318 	
504500000 	0.0023367719803460683 	0.004964181360220792 		0.7716404114986214 	0.6515706192643074 		0.9876542567357667 	0.19188164888365639 		0.0009805469226358257 	0.008703003775490083 	
514000000 	0.0020485910591029255 	0.005445793348472872 		0.7624260601670079 	0.6616642723287862 		0.9868891948568002 	0.19533400237920812 		0.0007081227893850372 	0.00831842200019413 	
523500000 	0.0008820553153855406 	0.004425433775435265 		0.753871620823961 	0.6716297268892214 		0.9867290546503368 	0.19863432077006654 		-2.547663696519272e-05 	0.0086032619600949 	
533000000 	0.0027163803751961593 	0.0050556988718421835 		0.7458711591051177 	0.6813434950806333 		0.9861528754454246 	0.2021068941130761 		0.0023723935176762855 	0.0072619222055073695 	
542500000 	0.002524049369050417 	0.0037599260949604334 		0.7365613360262804 	0.691724767282467 		0.9852748299581966 	0.20609102770044213 		0.0007913668337464847 	0.008226811595171492 	
552000000 	0.0030628747736742524 	0.005260171269354531 		0.7276066658154249 	0.7024308634577229 		0.9848399934215097 	0.20886358354221063 		0.0010215790851216171 	0.01053479141431838 	
561500000 	0.003081851481014518 	0.005766485822291834 		0.719603609938128 	0.7107798165548688 		0.9844399061495159 	0.21333554690825576 		0.002346916223860138 	0.008076368572832813 	
571000000 	0.002854515069512431 	0.006642973774829378 		0.7101581691887869 	0.7216970066287545 		0.9835574758853849 	0.21643149869444228 		0.002932487168706239 	0.007914223838778682 	
580500000 	0.003745521036730702 	0.00530033753544174 		0.7011244538660283 	0.7299830940905258 		0.9824958229431823 	0.22025514757753667 		0.002410108957048342 	0.008858269573571387 	
590000000 	0.0030750603388087967 	0.006237935719875389 		0.6913615710925697 	0.7396012402621479 		0.9821745758518085 	0.22374875506499656 		0.004238071345089527 	0.008477032652449736 	
599500000 	0.0029511388539772386 	0.007800122343941207 		0.6812096892642115 	0.7479270795686134 		0.9820959785131809 	0.2272127154166862 		0.0046380100441977936 	0.009592169147221058 	
609000000 	0.0014976596183218773 	0.007545918550681583 		0.6716411774077177 	0.7570633493455032 		0.9809871950817024 	0.23141276043417727 		0.004178439835473287 	0.01043563822876261 	
618500000 	0.00411102470977895 	0.007343062736977674 		0.6619727290390985 	0.7658536832634512 		0.97987550019527 	0.23425312027708534 		0.0038233874073149536 	0.009419890071259833 	
628000000 	0.002589744763348268 	0.00805407808930343 		0.6523733561311367 	0.7746433251868367 		0.9791012334722068 	0.23699454898174058 		0.0036993157012532927 	0.009229369160288289 	
637500000 	0.0032171662911632064 	0.006291107296842472 		0.6421686570698024 	0.7841733906794477 		0.9781610848784774 	0.24108763628421626 		0.004329702422016088 	0.009554005896182148 	
647000000 	0.0009913212061801156 	0.007143254467070186 		0.6330039775628922 	0.7925730550936053 		0.9777792107124009 	0.24479808614679816 		0.0045229504562342105 	0.01014792310342643 	
656500000 	0.00016323555007651726 	0.006768081401574033 		0.621813205604971 	0.8007754736472913 		0.9769221144949144 	0.24798155003972044 		0.004975402380695341 	0.008971652695483268 	
666000000 	0.0014741808323698155 	0.008630737762076868 		0.6119080789159228 	0.8086711553326034 		0.9767760750677986 	0.2516574101873103 		0.005683974249481959 	0.010667107556108855 	
675500000 	0.0005432498673857634 	0.0067263533528015155 		0.6013565439758839 	0.8176274525305156 		0.9761343050842826 	0.25472100469850933 		0.0048680849718541 	0.009815305398776137 	
685000000 	0.0017905917535411852 	0.008002646858254428 		0.5907662055657782 	0.8252291445066999 		0.9749476222488245 	0.2583805461328016 		0.006327799999338729 	0.009245335225298587 	
694500000 	0.00022324734939352392 	0.007775782707829374 		0.5799392834034605 	0.8327589197494771 		0.9744800452292983 	0.2622591667852021 		0.007071133032486019 	0.010772567311544442 	
704000000 	0.0005718103532498587 	0.00906397886615215 		0.569178603245362 	0.840626040222844 		0.9737096103770918 	0.2657325708528154 		0.007314915251552803 	0.01063073382346505 	
713500000 	-0.0009315672820305234 	0.009778285903216506 		0.5586458509023436 	0.8474498792708501 		0.9727238351989211 	0.26905937426082255 		0.008209863886040364 	0.010917941109840982 	
723000000 	0.0005976869653772326 	0.009986591468560775 		0.5477858142568699 	0.8553800265885436 		0.971271974626721 	0.27229311245692334 		0.008293639296023236 	0.010184367312132491 	
732500000 	0.001807135077900772 	0.010269552275772725 		0.5367099052541061 	0.862913133494587 		0.9705802790832551 	0.2757001578853399 		0.008281594298371846 	0.008758098453482027 	
742000000 	0.001313049175219673 	0.0082518981481932 		0.5252285946028951 	0.8699327305844535 		0.9698792640955731 	0.2795402375324135 		0.00951340631091013 	0.008294137273888003 	
751500000 	0.0004820894909710087 	0.009061634854726606 		0.5146445277749934 	0.8770813542256009 		0.9694567903179435 	0.28274856068823395 		0.00888993830534056 	0.009193439462790732 	
761000000 	-0.0023374688455045744 	0.009907099243418302 		0.502256648621149 	0.8845107608593367 		0.9682470784143324 	0.2862585143382061 		0.009604722459667932 	0.010809491336726068 	
770500000 	0.0028655101309498776 	0.011146791385775966 		0.4913577098055586 	0.889572131782998 		0.9682164736202935 	0.2903137801923355 		0.009452744574292467 	0.007166581524384351 	
780000000 	0.0012467637859071372 	0.00987630487905724 		0.48014545564299854 	0.8964217233617199 		0.9672442358089387 	0.2932097016129527 		0.0089894708127583 	0.007859930187561811 	
789500000 	0.0015944519816958585 	0.011460488662149399 		0.4689844874975486 	0.9034853619887253 		0.9655436514787937 	0.2966223931162537 		0.01155317777656895 	0.0071516948871109595 	
799000000 	-0.0008317782059242058 	0.009012591023013937 		0.45736859875680946 	0.9093814554428804 		0.9654864712391769 	0.3001262056330133 		0.01151383784278379 	0.009189336266968813 	
808500000 	-0.0012608188749516286 	0.011696545407744901 		0.44479464586376044 	0.9161942768454728 		0.9639842964437312 	0.3032410065259865 		0.01265812661601672 	0.008885801514435255 	
818000000 	-0.0012651857354503333 	0.012520933944249402 		0.4338963299263232 	0.9217122581198793 		0.9634832123326106 	0.30714292285249745 		0.012736855033264086 	0.009351721134155652 	
827500000 	-0.0006516464870956357 	0.011209649867768488 		0.4217913589128021 	0.9277037287275905 		0.962606445626718 	0.31031296715763823 		0.014413414691897795 	0.007598659941115958 	
837000000 	0.00032425255494406013 	0.011825207695465299 		0.40992374770588796 	0.9332198388930975 		0.9617400136221375 	0.314038325533031 		0.014925293251853192 	0.007027741974248892 	
846500000 	-0.0033536170800767618 	0.012734798274946415 		0.39789037041897973 	0.9378877717499835 		0.9609002272831246 	0.3180323130668396 		0.016049161451836956 	0.006513197158191382 	
856000000 	-0.0028692255177289227 	0.012784447119421095 		0.38532492607196284 	0.9439734379045782 		0.9601294873776768 	0.32070542549287173 		0.01564259044085301 	0.008166084538554799 	
865500000 	-0.0037814400945582628 	0.013459373763787186 		0.3734129542554547 	0.9500168313483865 		0.958116909235465 	0.3242184135429279 		0.016492388880331648 	0.006028894926018259 	
875000000 	-0.0039832398081273614 	0.015135763969101747 		0.36061798565446507 	0.9544505050344823 		0.9576887455570353 	0.3279227488560242 		0.01719408456530367 	0.006258297512909117 	
884500000 	-0.004086804381539167 	0.015369561960219328 		0.3484875653500777 	0.9590886447431771 		0.9569979221676637 	0.33094765071081655 		0.017782254422207662 	0.005633371590034652 	
894000000 	-0.0022992302807302582 	0.013018624097573555 		0.3368864330004171 	0.9632097184246404 		0.9561018328589135 	0.3342864897240672 		0.01763456734958012 	0.005782275503952548 	
903500000 	-0.0030691931388119914 	0.012050159721588486 		0.32397789526074394 	0.9685059202489176 		0.9549199337130567 	0.3375283681451789 		0.017111128282798586 	0.0059286225610912895 	
913000000 	-0.0045712596892286276 	0.013149983185292596 		0.31163575590830317 	0.9725172998557752 		0.9535516564073767 	0.34100197934397203 		0.017094095627954397 	0.006214212909637639 	
922500000 	-0.004767003631327251 	0.01357682638898129 		0.29892495689421794 	0.9773304737078645 		0.9527101972519316 	0.34445543340529194 		0.01766100723827166 	0.0051002442461425416 	
932000000 	-0.0053793343117030925 	0.013380379188360209 		0.2865945241835707 	0.9816363532853323 		0.9513294720068233 	0.34794980276842885 		0.019397707593149946 	0.004227437589119823 	
941500000 	-0.004043918544208028 	0.014008337235251363 		0.27385393786352746 	0.984401970902697 		0.950494259121673 	0.3517398876122908 		0.017496721781460885 	0.0039350570823410685 	
951000000 	-0.006769023007181401 	0.015482525950384343 		0.26107209666136033 	0.9889818261696401 		0.9497182735590434 	0.35422970594365644 		0.019446593185410126 	0.002106626955077436 	
960500000 	-0.005229858500734708 	0.014213361913468517 		0.2489213082438761 	0.9923158839775345 		0.9480861660947384 	0.35801234318010755 		0.018849895654944437 	0.0019066388992964247 	
970000000 	-0.009064450944808162 	0.015062915967650626 		0.23560922620602695 	0.9956848128682005 		0.9476822928127692 	0.3614941563607353 		0.020669160698193443 	0.0018029447416138215 	
979500000 	-0.008494101044284153 	0.016643501660358752 		0.22260688988757302 	0.9987769785565561 		0.9467098664945899 	0.3652187601442083 		0.022186553924149484 	0.0010281955974769884 	
989000000 	-0.008957033616162265 	0.017399840730927405 		0.20997394614349887 	1.0020705182761185 		0.9452107417806731 	0.36791903350577737 		0.021795209704896935 	-0.0009869177646935187 	
998500000 	-0.009829904988816715 	0.016695382810602313 		0.19763314937608664 	1.0046864849216115 		0.9441108821273442 	0.3715635485658254 		0.02200557897491358 	-0.001276576095586403 	
1008000000 	-0.009550595197349188 	0.01691168403999299 		0.1845179395355764 	1.0076100874161802 		0.9428874485769339 	0.3749961205145206 		0.021768537678088676 	-0.0007119767798389654 	
1017500000 	-0.010944732882588083 	0.015264858919072612 		0.17134396379304465 	1.0102863279912304 		0.9423310795201568 	0.3783477324228547 		0.02205517993221707 	-0.0019085133377570937 	
1027000000 	-0.011616285800876806 	0.014557450990287529 		0.15852602830137902 	1.012527871061955 		0.9408528388869597 	0.3811286731785592 		0.023382575223417593 	-0.0007950215540958709 	
1036500000 	-0.011512214135192234 	0.015591531666514724 		0.14603176569964343 	1.0147457905888526 		0.9399244980535013 	0.38503632577510755 		0.02349753103933319 	-0.0021293741855715476 	
1046000000 	-0.01318222511162578 	0.01605981088171872 		0.13280281167161426 	1.0170804285099186 		0.9389376090998298 	0.38829671214741 		0.023916072842687288 	-0.0034082736239592942 	
1055500000 	-0.012829832311925844 	0.015450533088424588 		0.11940040252907609 	1.0192620830985355 		0.9372366119674849 	0.39181396729795304 		0.023782547172990595 	-0.004254578374915021 	
1065000000 	-0.01285498750640588 	0.015196386983486262 		0.10642973997760731 	1.0211878175022422 		0.9362946678796529 	0.3947299967533811 		0.023946860796606444 	-0.0035829878880673555 	
1074500000 	-0.014383272420175487 	0.014901522620789948 		0.09334588471191439 	1.0224482465513767 		0.9348914260340239 	0.39835742753617415 		0.024856018838184238 	-0.005246603445744899 	
1084000000 	-0.015124687235884181 	0.014933805392806232 		0.0799088646776369 	1.0237581757230372 		0.9339552776480119 	0.40189557543478277 		0.025214974507128 	-0.004991735273137262 	
1093500000 	-0.016091208122136012 	0.016103361678893324 		0.06726071393146041 	1.0250323937080965 		0.9327161810567581 	0.4048556166185182 		0.024607308602407826 	-0.006834166004448919 	
1103000000 	-0.01636510213052705 	0.0143039520575677 		0.05407971518265446 	1.0260184501228493 		0.9314089792703479 	0.4085716549870007 		0.025140712143995946 	-0.008278386749565025 	
1112500000 	-0.016777442152607427 	0.01539975136489952 		0.040399884710334275 	1.0267852103460422 		0.930533869547654 	0.4114700083997065 		0.024841401880550163 	-0.007674239126775096 	
1122000000 	-0.016844990984667105 	0.01272091100140649 		0.027338382830953464 	1.028005349471989 		0.9290995308527867 	0.4147759032411349 		0.025526986758278847 	-0.007627603114332719 	
1131500000 	-0.018503432983054995 	0.013127120192772086 		0.014317376234618923 	1.0283254091630762 		0.9277412221141004 	0.4181189990041145 		0.025856020831151294 	-0.00891912165537868 	
1141000000 	-0.01938177622790019 	0.013211507357316634 		0.0010270003744858789 	1.0285455145790598 		0.9263835905884388 	0.4215882048238572 		0.02530024628995306 	-0.010035716439816964 	
1150500000 	-0.021142194027882425 	0.010891762642211788 		-0.012242969156637836 	1.0284204952664282 		0.9254572108003566 	0.4245104322276552 		0.025863153956677612 	-0.010595062893198313 	
1160000000 	-0.020557677133506817 	0.01136356925878829 		-0.02574920439414251 	1.029036135505744 		0.9245110597362016 	0.4277539529978577 		0.02516849468356378 	-0.01211922605596334 	
1169500000 	-0.020212491336658214 	0.011574814361790005 		-0.03860888729466351 	1.029291936814843 		0.9225459782732125 	0.43124755621892186 		0.024767574675771762 	-0.01235787059149238 	
1179000000 	-0.020890171815322753 	0.011779878562304093 		-0.051090705601716635 	1.0285333612048408 		0.9215415749088613 	0.43457607218644245 		0.024625907604980367 	-0.012804602179012345 	
1188500000 	-0.021362803173083925 	0.010592851914811312 		-0.06529154199628165 	1.0282311187648534 		0.9201446527579334 	0.4376422175913079 		0.024789313919512418 	-0.013366223917182314 	
1198000000 	-0.02356372671604652 	0.010569899223462803 		-0.07848631271863668 	1.027680288613401 		0.918835302465216 	0.44101277388764004 		0.025245806051678664 	-0.015949763879206304 	
1207500000 	-0.02338536259069891 	0.010041525172386089 		-0.09156629716307904 	1.0265718582424586 		0.9177131207997843 	0.4441615559335522 		0.023902432791117628 	-0.01601765129174565 	
1217000000 	-0.025591438325739718 	0.008653312707304244 		-0.1050295679706182 	1.0256029218273748 		0.9162890422788607 	0.44743626052039487 		0.024608948105177754 	-0.017769528687353573 	
1226500000 	-0.02526333543872145 	0.010226283603367376 		-0.11792703568687415 	1.0248001023794016 		0.9147570256696617 	0.45039457451108006 		0.02401185908678024 	-0.0180075717494382 	
1236000000 	-0.027688995922502038 	0.009071102532490025 		-0.13067013093086186 	1.0233665761361017 		0.9135083898395835 	0.45426609788733546 		0.024245063123021316 	-0.020115259037768358 	
1245500000 	-0.027077241675649715 	0.009023084012366072 		-0.14431886351077503 	1.0214106104057061 		0.9124384253543653 	0.45744135108345557 		0.02387394418514283 	-0.021500410426935814 	
1255000000 	-0.02912327701727765 	0.00855984500702428 		-0.1569736996234188 	1.02023979682983 		0.9110841355287789 	0.4604346726436543 		0.02331877206303415 	-0.022385685987678018 	
1264500000 	-0.027677850929066435 	0.0075023111446846915 		-0.17001709398412423 	1.0183071083689386 		0.9098069660289105 	0.46372354923867015 		0.022464332423100353 	-0.022507821012498153 	
1274000000 	-0.029308669138948626 	0.006892371914007462 		-0.18334354226419425 	1.0162777400869254 		0.9082893660255063 	0.4667815464015062 		0.022710633496536327 	-0.023964343866483783 	
1283500000 	-0.03091034008543036 	0.005731379888341718 		-0.1962212118332944 	1.0142391476955404 		0.9068285067139903 	0.4697928823567731 		0.022972350979586914 	-0.02434818442848487 	
1293000000 	-0.030702223287960052 	0.005519024945803049 		-0.20945547110228876 	1.0116100507446322 		0.9054327742544543 	0.47305264323968066 		0.022445554006764092 	-0.025945174189421286 	
1302500000 	-0.03209743416200339 	0.005079786557482736 		-0.2219825231880616 	1.009211881515583 		0.9038124153838409 	0.4763326500250064 		0.02156529845109477 	-0.026720040306030302 	
1312000000 	-0.030724582695256582 	0.004409271114837991 		-0.23549532422134853 	1.0062394122919054 		0.9028133452665991 	0.47926790740613145 		0.02143392514350468 	-0.02720761847838137 	
1321500000 	-0.03128047527132993 	0.0027693559504069344 		-0.2482606273990864 	1.003788655179429 		0.9015654581833292 	0.48253849078390476 		0.021189121579946544 	-0.027872652707774562 	
1331000000 	-0.030188428763395316 	0.0011768274481620477 		-0.2608060543128889 	1.0007398881508147 		0.8996251845953395 	0.48540956597946183 		0.021347693063202795 	-0.027501985458043967 	
1340500000 	-0.031259060263313515 	-0.0003882226484065862 		-0.27401079749918317 	0.9980233085720989 		0.8978652845171086 	0.48868558005488383 		0.02024066237647869 	-0.028943864963251353 	
1350000000 	-0.03254192822604014 	-0.0009494048693144211 		-0.2868106292541998 	0.9945635908927267 		0.8965426445752444 	0.4917799235040529 		0.01979437985790562 	-0.03006596832653008 	
1359500000 	-0.03364025491927202 	-0.0017918574032354509 		-0.29949937549216993 	0.9908478366178314 		0.8953245906810017 	0.4948756361926128 		0.018401897592806846 	-0.03167361886469937 	
1369000000 	-0.033246950454190974 	-0.0008743018101063975 		-0.3114217850282966 	0.9876096493449384 		0.8936111790049653 	0.4979377378776971 		0.017243266611885615 	-0.032533523638985 	
1378500000 	-0.03387369946556371 	-0.0032036302514716207 		-0.32451091760507716 	0.9838536054326242 		0.8919600994719977 	0.5015306679214038 		0.01715548960889685 	-0.032699621418014434 	
1388000000 	-0.035213570300544915 	-0.004245420703959801 		-0.3370616858673185 	0.9797016944568481 		0.8908553081119435 	0.5044243279410029 		0.016495364894800232 	-0.033746521607011165 	
1397500000 	-0.03610976484554339 	-0.004846695910855245 		-0.3493639740462319 	0.9754660575430517 		0.889416211083704 	0.5076517673903297 		0.015571568597723042 	-0.034989102510521085 	
1407000000 	-0.035037014573878554 	-0.0062076767969989465 		-0.3619269564591163 	0.9710554400440345 		0.8877879719733576 	0.5107115995892427 		0.014851796150260294 	-0.03548534805988515 	
