!Nueva Lista de parametros Z 
# Hz Z RI R 50 
400000000	0.5281465564433748	-114.76267752352298	0.38130221324468555	-124.756766900855	0.40854369412256986	-124.8977529006257	0.5443522787573215	-114.6914987654497
409500000	0.37177492012360364	-111.6930819006898	0.2456893893139781	-121.82873960875816	0.261188585427646	-122.06259740941981	0.4282730177446238	-111.55903226314516
419000000	0.23239673831606691	-108.82309354280376	0.08548116832232834	-119.30319993810976	0.1579171491556553	-119.42971744592087	0.3427811779491401	-108.79551103899622
428500000	0.42059235603205847	-106.14193560479306	0.17724179768334294	-116.8325283150425	0.24856730921645478	-117.09533895133015	0.35476656865274436	-106.16310997777346
438000000	0.4390289895662443	-103.57454641847283	0.17349188174996014	-114.6116683895658	0.35489114488217216	-114.73486282395855	0.4908723651971581	-103.64137921162724
447500000	0.4224969080373724	-101.05967970633901	0.2934412016187974	-112.28390038537967	0.25323652691801024	-112.42470470750611	0.4937171228323864	-101.0399103740154
457000000	0.4233594404951145	-98.60832807279887	0.24015356209795952	-110.05742900419554	0.26191939440113193	-110.183539887488	0.4678442170525405	-98.53397632949923
466500000	0.47955588217803546	-96.20015265768183	0.27380624042426244	-107.96919124155836	0.27892353600459857	-108.12195100226461	0.4468867831373597	-96.34442019034181
476000000	0.4700478194972537	-94.015186022913	0.28259684431907595	-106.046136555919	0.2850769875840258	-106.1872801392721	0.45979863244120395	-94.13167696271552
485500000	0.5292195450761642	-91.89404548659608	0.3834179366928312	-104.17508241698751	0.3789738643983546	-104.2876607623329	0.6142587419474999	-92.00945980914334
495000000	0.5599808284889796	-89.87592849748528	0.37666519428493517	-102.35257351559186	0.38828168754413384	-102.48092578209118	0.5739108724025059	-89.88419936692556
504500000	0.533568447172667	-87.9214344245881	0.38292734882030083	-100.66592416400863	0.3899533848857578	-100.7643315000149	0.6481288421549009	-87.91383635187913
514000000	0.42996168849739846	-86.01575738451542	0.2735002642443841	-98.9945777409024	0.25077750574621227	-99.14246111298301	0.5341299499217338	-86.04096845917098
523500000	0.30982983177750345	-84.00373972347883	0.1607600260682576	-97.197448858808	0.16018974637026437	-97.33843344095126	0.42743150754823767	-83.98509244167515
533000000	0.32534633291772486	-82.15658661674036	0.10184891328886345	-95.66200357047917	0.1681975999060967	-95.7827467848815	0.41999114465917947	-82.22801492272325
542500000	0.34209254665700595	-80.40587176332163	0.11097169050271025	-94.11866260442629	0.06985366565144722	-94.27591873548785	0.3147165230681066	-80.44905303479058
552000000	0.4778339757294101	-78.75039430692131	0.31988405150469273	-92.73658581835707	0.20243287629042403	-92.84010592442111	0.5092360632952803	-78.72575203100243
561500000	0.3666658966866228	-77.14934096015702	0.08859126347503554	-91.39838262412515	0.15262034816336775	-91.47359660745272	0.3875716373382466	-77.2120513162346
571000000	0.4471802158631756	-75.42499394069203	0.23691866680088844	-89.99093065072262	0.22166197726050615	-90.05004344172495	0.5352015775997236	-75.52320176687532
580500000	0.426713336712567	-73.96079965140146	0.16626492795792067	-88.74359938256273	0.1739149258521157	-88.82118819745017	0.46621208879706577	-74.03917684524374
590000000	0.35259704933374597	-72.46238086939972	0.08253970239922527	-87.51929354563016	0.10814363944742798	-87.64127989248658	0.4190438344232585	-72.56932896532095
599500000	0.41775464666152984	-71.03328000069799	0.12771512031380475	-86.29340750069201	0.17380669006247	-86.49811465564753	0.4325061389813575	-71.07126260456873
609000000	0.43645872129345925	-69.55631951966998	0.21116586643466523	-85.07004732031282	0.22155734483209524	-85.19628327072404	0.5074236404253191	-69.57394782877985
618500000	0.42882365936991795	-68.06496131175294	0.09520731947201404	-83.89839217027706	0.14180516358399525	-84.05026760794244	0.3848623089469487	-68.22992879832132
628000000	0.44641613350440623	-66.65765770977212	0.16488453623937255	-82.7456215833478	0.1988761413709255	-82.83652048361263	0.4649801643380477	-66.79421092516017
637500000	0.4129756157024596	-65.35849337573595	0.10722737659377371	-81.71413307827271	0.10640264291727218	-81.7577370749054	0.38111973696397317	-65.47495096020296
647000000	0.4525539261306098	-64.12210481190759	0.15152064238897467	-80.7092283339949	0.20210288355665396	-80.76928536169233	0.5121075018183677	-64.20818090587632
656500000	0.43565497433906253	-62.89569629793012	0.15914488003355406	-79.68926976051236	0.17361800097119645	-79.78473213280998	0.514448299995775	-62.91196676615452
666000000	0.3846186275804523	-61.69744456827497	0.11099231224565187	-78.76716940301161	0.14104827473552722	-78.88715467586455	0.47434993166229605	-61.75983706776305
675500000	0.4333385824318457	-60.51639081370277	0.11680842457145232	-77.81744468663692	0.1397561462978035	-77.89930203904584	0.48525802888031594	-60.45647171855245
685000000	0.4270939609675343	-59.29696142144215	0.10021871014646315	-76.92423253504508	0.11921607889460428	-77.01358000211823	0.46704976465017745	-59.388511427304394
694500000	0.4005305713322523	-58.19877160076337	0.08499566103587154	-76.0963579033689	0.10673504510478807	-76.15014430613691	0.4233781998317562	-58.24534693002665
704000000	0.4569410721649229	-57.070721564939404	0.12865304544097944	-75.2061622730559	0.1258279704187579	-75.33216311071942	0.4725736255128827	-57.158403581450735
713500000	0.48744504351734735	-56.025250718853634	0.18202733232405932	-74.41664564671468	0.22019194628973887	-74.52188278281831	0.5694628040258388	-56.070821546890635
723000000	0.39669933935384705	-54.92420157478533	0.07795195473054467	-73.61318223344455	0.08551330163324652	-73.67603059489522	0.47452207834133675	-55.01900199993731
732500000	0.4024493116142372	-53.84991207862	0.0347684104355334	-72.84083046912438	0.03928765360795998	-72.89619606680249	0.44058449590116305	-53.99018065260422
742000000	0.42772695720582954	-52.89885943812158	0.04300122041217964	-72.10064238193617	0.04012592027903351	-72.19829801123838	0.41039191411122455	-52.94201145302239
751500000	0.4209592686137129	-51.86362510483594	0.01231835599784516	-71.34654133404645	0.05292138788313955	-71.40512665782683	0.4382172165168361	-51.94696104315679
761000000	0.4216252836596238	-50.847462877587574	0.14019475141663237	-70.58758472019699	0.07558326465699015	-70.65417405788588	0.5352089304786306	-50.89394406360607
770500000	0.3160123815863645	-49.8719784414973	-0.10603472100441247	-69.88446135993472	-0.10638211811778721	-70.01107069205057	0.31395465310713105	-50.060976204494054
780000000	0.3843056280482663	-48.89554123512924	-0.04088128187148883	-69.15783623707595	-0.013098405127065735	-69.29716689032651	0.37958206241588205	-49.04387777305319
789500000	0.37623632203042007	-48.029168841855565	-0.07033462198268593	-68.62224753047767	-0.029278386258831217	-68.69121960827891	0.40575105769358777	-48.20405126308731
799000000	0.4289238899594396	-47.18814692932485	-0.026025953643450495	-67.9689868327527	0.024761789946837677	-68.06442329953586	0.4430781634105231	-47.19380758607397
808500000	0.44382841971759096	-46.271151142227	0.03397184466938637	-67.36851049804024	0.012888707826136166	-67.46593021780636	0.48294518681818627	-46.33952014569258
818000000	0.41253857151525647	-45.39909245120305	-0.028450575487030744	-66.7727486988136	0.012368354274823254	-66.86049116926971	0.46831402782167436	-45.47648148201962
827500000	0.3963454700395557	-44.58460294859114	-0.04630287214430148	-66.21982431806788	-0.02915809601154981	-66.31475678278318	0.4477742092766418	-44.641036396123106
837000000	0.42844456243485324	-43.72037382901584	-0.07936224238935216	-65.66048326136792	-0.037025852540394304	-65.74918288210118	0.3932900147586593	-43.787365604467375
846500000	0.4229799053705857	-42.90373094622036	-0.029598223324194435	-65.11044114154423	0.011006816237393939	-65.24522349938354	0.4799594384433538	-43.024118319722824
856000000	0.42627492060853767	-42.060329835729696	-0.024904624064548016	-64.54027893385982	-0.02754759497694423	-64.61918088545798	0.4432261924050019	-42.12201096682112
865500000	0.506862594458426	-41.27533024541177	0.029720489845801314	-64.10304140730094	0.024130730583530016	-64.13351226273022	0.5143835138224667	-41.39381004052892
875000000	0.41933801991006653	-40.45726032218502	-0.04448935530714019	-63.55208008140179	-0.03856724706886785	-63.638428345533846	0.48083048163223757	-40.58764383444632
884500000	0.40938478199945955	-39.67480243258615	-0.04304286491755761	-63.069114041875395	-0.06470684948520007	-63.14579055361758	0.4948308406423388	-39.84666991712764
894000000	0.44410806268310743	-38.91309884282728	-0.09361756878035307	-62.53833892203826	-0.05026017250609532	-62.617589687415304	0.40461850398116866	-39.03059061871
903500000	0.47200970635553463	-38.16579717152562	-0.0563522309919354	-62.03649114232251	-0.08035040385005723	-62.12929373592699	0.46293449581293317	-38.20223659145809
913000000	0.44740932649148	-37.43211033078157	-0.06270320826169169	-61.601428040402986	-0.05267717164259173	-61.68912859056065	0.47463256435884266	-37.51509369125264
922500000	0.4322368461066003	-36.687909604204975	-0.09224675366170425	-61.170580605925764	-0.09701724829722508	-61.22811350806677	0.4649744642737368	-36.7695247509998
932000000	0.4288768128200044	-36.00235318021546	-0.08882271388314626	-60.77489467890407	-0.10676499662286994	-60.810285875819254	0.492112307161729	-36.069172058582645
941500000	0.44858331227795983	-35.23774970021184	-0.12158261035208298	-60.27938115030227	-0.10275941211995779	-60.39364739869765	0.4501465850299316	-35.35577712471452
951000000	0.4631813459094034	-34.48296881629182	-0.09667222879910572	-59.87888072630675	-0.08999259761898627	-59.9558998382248	0.47619128821863604	-34.65644543548545
960500000	0.5038199071109489	-33.821138669760906	-0.12354649736079272	-59.46513630054318	-0.0975480848762545	-59.520060725823335	0.4548759049616256	-33.95982134897235
970000000	0.432160216742437	-33.155383459686504	-0.11290240181163144	-59.11440777734049	-0.08116638591357467	-59.208657628629005	0.519872170685559	-33.30123349277938
979500000	0.43063385083396455	-32.47297402818794	-0.13445458442721123	-58.75363743658275	-0.1354520258230846	-58.84549371216403	0.4937142460000069	-32.652090512228696
989000000	0.48002695777705734	-31.79139731019003	-0.12292814765225654	-58.377858826215615	-0.12933386114578627	-58.468686791702886	0.49375776596992815	-32.027072829451065
998500000	0.45731001655518466	-31.125995618173928	-0.15069642670169836	-58.02584523242283	-0.12798715568694533	-58.07083131028191	0.4795194801687234	-31.359635306839643
1008000000	0.47783330713760186	-30.456711544402435	-0.16243553891647322	-57.624029461091894	-0.14471801473454635	-57.69997502719363	0.4652524936995704	-30.700228637406404
1017500000	0.5002468584983977	-29.861071440707384	-0.10409648547620086	-57.3183375057711	-0.10789811993888215	-57.37873841113753	0.5361178687555744	-30.047847644025225
1027000000	0.4749121179576036	-29.227236983257363	-0.14303212638426718	-56.97413259684695	-0.12350871874099364	-57.04263973812269	0.5319178236124833	-29.380709765778036
1036500000	0.4663002959539087	-28.58971063656599	-0.19277120984773902	-56.63014633758734	-0.15018303472918232	-56.71011517132555	0.5191678506417615	-28.774864542968395
1046000000	0.47253942645074815	-27.990145156536062	-0.19140644770817364	-56.38805944523846	-0.16133775761233313	-56.449514706396435	0.5444169375993906	-28.187453308828662
1055500000	0.5485600600890451	-27.397483665879957	-0.1325035244349866	-56.09770876740145	-0.1338273665292115	-56.133080823001954	0.5512003714875026	-27.56932469476141
1065000000	0.5176768086762831	-26.76119051716208	-0.16264317640565723	-55.74015980373589	-0.16281443747131455	-55.78388181725688	0.5390548938834052	-26.934881078842658
1074500000	0.5130039898012425	-26.18196367155421	-0.16178178547698158	-55.455277731785145	-0.14425130553212773	-55.521320118527996	0.5466754523192962	-26.33367458412723
1084000000	0.4851986786834247	-25.600871741792723	-0.17521251336749813	-55.195898725912976	-0.19363154762772666	-55.25621414456232	0.5449602133967438	-25.756375749472
1093500000	0.5067254094449826	-24.988317259112645	-0.21475294657520572	-54.91679980196182	-0.20026952935541487	-54.97461876381324	0.5500725532828913	-25.19957061334751
1103000000	0.5194480036217544	-24.42193487325438	-0.21885831952790485	-54.65368383301168	-0.1928385236013368	-54.71689110595573	0.5611256112368991	-24.601913976473693
1112500000	0.5439670157002536	-23.847325321283616	-0.20708689077307255	-54.37622683638472	-0.23016550782671932	-54.4647325813804	0.5493593909352988	-24.02571476200615
1122000000	0.5470589988875026	-23.26503477289419	-0.17805594641372466	-54.11402624340872	-0.17619651142961154	-54.15852918115926	0.5702376441926048	-23.4180747822128
1131500000	0.558415318061972	-22.69982437025425	-0.18664386468091723	-53.88710474885487	-0.16853762860340832	-53.94219868107709	0.5937099594265558	-22.87196483885828
1141000000	0.5378254199181486	-22.14475223821265	-0.22619475093894786	-53.64875682003551	-0.20834303749343633	-53.72339599847755	0.5899759853921208	-22.31280062999472
1150500000	0.5330850020502346	-21.545943964926494	-0.20193818044086873	-53.38279969782785	-0.18171801736446702	-53.47445330987299	0.6346699963341451	-21.74199364712251
1160000000	0.5678960780274946	-21.04156535108022	-0.22878960652882324	-53.21641648947574	-0.2176725060482948	-53.29360250810632	0.6037690769704159	-21.190373114988077
1169500000	0.5815965235300399	-20.488053572389415	-0.22278911001076443	-52.9622040635448	-0.20761575262567472	-53.018505001252706	0.6010086728628778	-20.649721310015018
1179000000	0.5825771347141532	-19.989674319506694	-0.27161454605708807	-52.770375971504855	-0.2236003370831534	-52.85730531056996	0.5932142458751755	-20.12351921533934
1188500000	0.5777651036748731	-19.416410720901123	-0.2539535003393555	-52.56356855170699	-0.24198011488655308	-52.62147472532171	0.5986728225353019	-19.54089645161355
1198000000	0.582107336045446	-18.888744979903727	-0.2793337812269447	-52.398070565296265	-0.2609405440743963	-52.47576948960448	0.6248176300527223	-19.058197645416477
1207500000	0.577557355210304	-18.35448787646464	-0.2906185535141964	-52.16575864659289	-0.27353094196080147	-52.25265631335168	0.598882253196548	-18.49844069299239
1217000000	0.5774011914896872	-17.812146904478368	-0.258433443674102	-52.00006228218271	-0.26988336749227965	-52.06913796849871	0.6222249734790313	-17.999616788407355
1226500000	0.6092000450736813	-17.282048673880183	-0.2933607299850323	-51.8089289240841	-0.2688067482808838	-51.87551264370035	0.6075343584093996	-17.469235865713674
1236000000	0.5943112920778296	-16.778788079565825	-0.3194223964599326	-51.6690881368911	-0.28122151700545306	-51.73240325957334	0.6371021013760443	-16.990430731354852
1245500000	0.5894026025755021	-16.253204394218105	-0.3192719357322415	-51.49246562714673	-0.314344642908179	-51.563897228526955	0.6037163075933449	-16.468571233864857
1255000000	0.6096292621051557	-15.712638321684938	-0.3212765432369072	-51.32028908640252	-0.30459083404738946	-51.38545639269469	0.6369460595849032	-15.972982710018163
1264500000	0.6379548378470598	-15.215011129946834	-0.31639451710125144	-51.13493968105598	-0.2754318822796139	-51.20157750803221	0.6261436203738215	-15.439687210808222
1274000000	0.6428011682731293	-14.706599491597627	-0.322737140001328	-51.01326123621194	-0.29781358483803116	-51.06800939937346	0.6375681829451222	-14.94247595618176
1283500000	0.6259286839267882	-14.211310360160894	-0.33077867005893163	-50.864705008080584	-0.324108747892605	-50.94370000518061	0.6632302396327161	-14.449422400162918
1293000000	0.653191632978738	-13.721836834338886	-0.34326230805605534	-50.72916236082687	-0.3353733997455482	-50.80947495861472	0.6740936429231537	-13.956687465140417
1302500000	0.6405376009755568	-13.205628743937142	-0.35132528300778704	-50.58275974029314	-0.3369842991350258	-50.645338172766024	0.6721535273290814	-13.480273394191931
1312000000	0.6675929930518845	-12.701664917751987	-0.33198036215938365	-50.42988718071368	-0.3221811500614952	-50.49399830491337	0.661110927158121	-12.954293993666548
1321500000	0.674034866393312	-12.230724523927089	-0.3450756729110708	-50.31174074256756	-0.33404871672543457	-50.376911918766474	0.6603552661115352	-12.451562394069846
1331000000	0.658602676572725	-11.783377484037882	-0.3409660784578207	-50.192101978986386	-0.33145965981918385	-50.27272931562995	0.6757402550937801	-11.96340613868761
1340500000	0.6686875422573089	-11.292352823688729	-0.36422826912711664	-50.088071881576404	-0.36635162513010316	-50.14525633364902	0.6983412966983247	-11.472874819898134
1350000000	0.6581901018952623	-10.771201981551856	-0.3719877049860267	-49.983232226823155	-0.3702724137021918	-50.02120870842139	0.7050913091017752	-10.99778106364265
1359500000	0.6710425930929547	-10.280503623455271	-0.41019659196614394	-49.86579458795104	-0.3967404509914392	-49.93953063447574	0.7132933145582826	-10.53201573738642
1369000000	0.7179391437525097	-9.809343944766619	-0.4143519275860734	-49.76601464470924	-0.37591970663261914	-49.83300069306433	0.6998471434818994	-10.055402814329788
1378500000	0.7023365045260592	-9.34225482760374	-0.4341775395315462	-49.6910053231232	-0.4073009240777841	-49.75671796932402	0.7149918414754373	-9.576430735663736
1388000000	0.6893914964141103	-8.846085462728213	-0.4406545795519074	-49.60046473190793	-0.41455322577897463	-49.64867806100424	0.7104649324424033	-9.109606815418626
1397500000	0.698334030500576	-8.363292508934217	-0.47180501294263144	-49.49653798409156	-0.42448463917587737	-49.58107385609916	0.7307780669772339	-8.652194414800444
1407000000	0.7072744960721169	-7.894460177822649	-0.4637727446565729	-49.41977623891778	-0.42666666072474047	-49.48984404013583	0.7428276626305801	-8.154052408930564
1416500000	0.7470991134759893	-7.433205295759024	-0.43808769474550663	-49.34337217189268	-0.417049005930804	-49.3873576639137	0.7405424846114843	-7.672408846060004
1426000000	0.7502641573871903	-6.983057934059237	-0.4783452212205427	-49.245385429599786	-0.42518315315474753	-49.33585265011932	0.7565343914702787	-7.205738033719299
1435500000	0.7618200794137158	-6.493362582957856	-0.45854748798810785	-49.20402593495854	-0.4209961786956523	-49.27682963960172	0.7504409195696495	-6.748021093765978
1445000000	0.7369648974741854	-6.0473672658099416	-0.4746885761417925	-49.13160334697774	-0.45897773281363946	-49.20140873781936	0.7649988536962696	-6.279979208611249
1454500000	0.7490802075006567	-5.575392684723251	-0.5097420418534732	-49.08607270664082	-0.46144356072199244	-49.11694099119616	0.7581604842817887	-5.81920673022783
1464000000	0.7626008987443612	-5.097749658810833	-0.5144234126699041	-49.02374827398927	-0.4723400190387083	-49.05998580277399	0.7685479350852559	-5.363211477375295
1473500000	0.7620705365750493	-4.624911541502275	-0.5123835533174474	-48.960358287265976	-0.4845651920931681	-49.03053069537418	0.7762227856678676	-4.887369192262425
1483000000	0.7745067473705504	-4.1663215518841445	-0.5213262581418096	-48.92920747117671	-0.4881667810395499	-49.00547457828094	0.7841843748583213	-4.41252498486502
1492500000	0.7737666567823746	-3.7267286017163497	-0.5252576883077212	-48.860044436060974	-0.5130128193431298	-48.926836040246776	0.7913960718425713	-3.9674592682408187
1502000000	0.7901481157919188	-3.2652874104377476	-0.5704056521339745	-48.84998165141983	-0.543657229796444	-48.920495535858656	0.8187358643131171	-3.517069085985223
1511500000	0.7965399735571188	-2.7717209488044823	-0.5412363930456998	-48.80763842143495	-0.5159278227233431	-48.879117506444985	0.8266415126707777	-3.0380957649170672
1521000000	0.8298596727598255	-2.3195034437785402	-0.5496127054617798	-48.78117909289591	-0.5112884596682165	-48.864999007879874	0.8337747733696725	-2.591470676643734
